hour, t(sec), S1 (kVA), Ang1, S2 (kVA), Ang2, S3 (kVA), Ang3
0, 900.00000, 1766.1, 12.8528, 1734.88, 11.5813, 1833.75, 12.8007
0, 1800.00000, 1685.76, 14.0106, 1729.75, 11.4544, 1739.22, 13.1165
0, 2700.00000, 1014.11, 75.9301, 937.297, 34.1456, 986.71, 39.4825
1, 0.00000, 1012.45, 39.8176, 1220.47, 22.518, 1168.82, 28.9184
1, 900.00000, 1779.73, 12.6115, 1785.14, 10.7793, 1954.61, 11.8635
1, 1800.00000, 1818.38, 13.1533, 1876.47, 10.6422, 1971.91, 12.2784
1, 2700.00000, 1993.99, 11.7147, 2042.69, 10.6072, 2170.49, 11.94
2, 0.00000, 2016.41, 12.9613, 2116.2, 10.8246, 2154.03, 12.4245
2, 900.00000, 1786.94, 19.9374, 1947.14, 15.6439, 2227.57, 21.1581
2, 1800.00000, 2022.09, 17.7002, 2183.01, 14.2616, 2340.01, 18.5933
2, 2700.00000, 2342.5, 13.68, 2465.61, 12.743, 2757.5, 15.7897
3, 0.00000, 2236.24, 15.1299, 2311.92, 13.2023, 2418.45, 14.205
3, 900.00000, 2205.66, 14.8906, 2280.2, 13.9961, 2431.66, 14.5865
3, 1800.00000, 2256.36, 16.1672, 2218.66, 14.2646, 2206.66, 15.6295
3, 2700.00000, 2227.03, 16.1325, 2145.98, 14.8828, 2180.19, 15.7313
4, 0.00000, 1999.23, 18.5175, 1991.11, 16.0442, 1992.87, 17.6122
4, 900.00000, 2128.13, 16.3588, 2128.68, 14.5657, 2283.3, 22.2853
4, 1800.00000, 2051.8, 17.0514, 2064.95, 14.8039, 2055.71, 18.362
4, 2700.00000, 1956.92, 16.0451, 1972.29, 15.0758, 2072.2, 16.366
5, 0.00000, 1940.98, 17.5264, 1904.99, 15.2581, 1935.96, 17.3087
5, 900.00000, 2026.26, 17.0522, 2010.36, 15.4419, 2027.83, 16.044
5, 1800.00000, 1789.15, 24.7253, 1780.65, 19.0968, 1786.7, 21.7334
5, 2700.00000, 1932.7, 22.0886, 1905.3, 17.9203, 2121.95, 23.8309
6, 0.00000, 2337.63, 17.6828, 2289.09, 14.3919, 2383.59, 21.1966
6, 900.00000, 2488.45, 15.8914, 2426.26, 14.0455, 2454.38, 15.0085
6, 1800.00000, 2505.33, 16.3109, 2434.69, 13.3828, 2439.12, 17.1493
6, 2700.00000, 2431.56, 15.6315, 2345.78, 13.5622, 2404.3, 15.0094
7, 0.00000, 2256.19, 18.2454, 2226.9, 14.832, 2265.2, 19.5483
7, 900.00000, 2043.92, 17.1216, 2079.25, 15.0996, 2176.9, 17.7646
7, 1800.00000, 1991.54, 16.5827, 2011.68, 13.2706, 1945.92, 15.3907
7, 2700.00000, 1915.67, 15.4379, 1816.51, 13.0947, 1866.33, 13.9514
8, 0.00000, 1785.02, 16.3335, 1713.8, 12.1365, 1863.13, 21.1949
8, 900.00000, 1623.87, 13.2811, 1589.34, 11.839, 1674.5, 13.4444
8, 1800.00000, 1498.58, 14.3548, 1512.65, 11.5552, 1558.59, 13.9564
8, 2700.00000, 3668.25, 75.2693, 622.289, 59.6301, 695.807, 65.4562
9, 0.00000, 688.181, 75.5475, 777.87, 37.0394, 742.682, 51.643
9, 900.00000, 1484.44, 12.4502, 1536.49, 11.4401, 1697.48, 14.8881
9, 1800.00000, 1538.34, 13.711, 1578.29, 10.99, 1641.67, 12.6495
9, 2700.00000, 1714.18, 12.4608, 1702.34, 10.9065, 1821.33, 12.1338
10, 0.00000, 1752.41, 13.7824, 1765.3, 11.0549, 1808.36, 12.9242
10, 900.00000, 1651.93, 16.9366, 1700.07, 13.8337, 1942.4, 15.974
10, 1800.00000, 1731.54, 18.1623, 1796.25, 14.7388, 1996.65, 15.8896
10, 2700.00000, 2049.23, 14.2782, 2130.02, 13.4338, 2371.7, 17.1143
11, 0.00000, 1911.02, 15.8244, 1997.8, 14.1422, 2156.58, 17.7231
11, 900.00000, 1947.54, 15.6904, 2000.21, 14.1977, 2207.32, 19.5536
11, 1800.00000, 2008.99, 17.1069, 1995.63, 14.7723, 2186.81, 22.2674
11, 2700.00000, 1973.37, 16.3875, 1919.09, 15.0669, 2165.09, 21.3502
12, 0.00000, 1883.61, 18.6241, 1830.93, 15.6633, 1967.85, 22.9469
12, 900.00000, 1909.53, 17.2331, 1890.48, 15.5122, 2071.53, 22.841
12, 1800.00000, 1940.43, 16.8887, 1877.51, 14.6568, 1779.05, 16.7575
12, 2700.00000, 1871.78, 16.0584, 1790.71, 14.6213, 1894.45, 17.6149
13, 0.00000, 1872.9, 17.0865, 1773.46, 14.79, 1732.87, 16.5362
13, 900.00000, 1887.65, 16.3358, 1823.59, 14.4071, 1867.31, 15.626
13, 1800.00000, 1685.2, 23.0589, 1674.19, 18.1249, 1605.69, 20.9687
13, 2700.00000, 1653.07, 25.5702, 1661.72, 20.1698, 1877.11, 28.4328
14, 0.00000, 2212.8, 17.2328, 2089.78, 14.6295, 2147.63, 18.9607
14, 900.00000, 2325.52, 16.3737, 2220.69, 13.9998, 2279.57, 15.7624
14, 1800.00000, 2367.03, 19.6627, 2202.45, 13.5378, 2322.32, 15.8519
14, 2700.00000, 2250.47, 18.9053, 2129.89, 13.9031, 2312.38, 18.7816
15, 0.00000, 2047.75, 19.6963, 2006.76, 15.4728, 1981.15, 18.5475
15, 900.00000, 1768.81, 21.2501, 1736.18, 17.6571, 2016.2, 25.9085
15, 1800.00000, 1628.45, 21.5668, 1672.04, 16.9761, 1626.94, 20.7283
15, 2700.00000, 1685.07, 14.8402, 1651.36, 13.193, 1703.08, 15.1644
16, 0.00000, 1538.88, 15.1591, 1600.37, 12.7347, 1524.17, 15.2677
16, 900.00000, 1469.36, 12.9561, 1470.25, 11.9859, 1532.66, 13.9915
16, 1800.00000, 1379.38, 14.5091, 1400.82, 11.7076, 1412.94, 14.1593
16, 2700.00000, 864.351, 32.0898, 1020.71, 20.9274, 1072.21, 24.7698
17, 0.00000, 673.265, 61.8675, 786.93, 32.0624, 759.2, 44.1031
17, 900.00000, 1410.94, 12.8797, 1427.09, 11.3155, 1648.27, 17.4622
17, 1800.00000, 1445.26, 13.7822, 1460.54, 10.7325, 1528.79, 12.8254
17, 2700.00000, 1613.75, 12.5711, 1593.74, 10.6568, 1872.3, 18.9063
18, 0.00000, 1687.65, 14.1367, 1672.92, 10.9833, 1772.78, 12.8785
18, 900.00000, 1624.07, 16.4056, 1653.72, 13.5817, 1856.33, 15.5845
18, 1800.00000, 1176.83, 92.2221, 864.3, 48.3003, 1144.76, 60.4148
18, 2700.00000, 1891.1, 16.2102, 1961.41, 14.1479, 2295.54, 21.1765
19, 0.00000, 1975.85, 16.165, 2006.83, 13.9724, 2222.26, 21.0103
19, 900.00000, 2052.61, 16.5522, 2004.9, 14.0605, 2169.88, 17.615
19, 1800.00000, 2014.04, 17.2946, 1958.52, 13.5117, 2156.52, 21.8684
19, 2700.00000, 1852.87, 20.6013, 1797.79, 15.9958, 2139.68, 23.6885
20, 0.00000, 2140.22, 78.0111, 860.521, 53.7533, 944.885, 59.4218
20, 900.00000, 1237.98, 41.7099, 1309.21, 28.1983, 1476.51, 34.4408
20, 1800.00000, 1922.65, 18.5926, 1856.51, 14.6959, 1758.71, 15.8815
20, 2700.00000, 1766.89, 16.18, 1718.03, 14.6374, 1788.94, 15.5091
21, 0.00000, 1791.22, 17.0316, 1838.44, 21.4223, 1805.6, 16.7017
21, 900.00000, 1787.13, 16.0605, 2151.71, 20.4798, 1828.47, 16.6493
21, 1800.00000, 1170.4, 43.4891, 1296.19, 28.6597, 1229.05, 35.192
21, 2700.00000, 1467.34, 30.1329, 1519.42, 24.0881, 1667.8, 29.9874
22, 0.00000, 2150.06, 17.5417, 2039.21, 15.512, 2090.8, 18.1506
22, 900.00000, 2162.06, 16.1701, 2141.36, 15.1228, 2269.94, 19.5367
22, 1800.00000, 2210.15, 16.9523, 2194.64, 14.6589, 2319.58, 21.388
22, 2700.00000, 2131.92, 16.0368, 2075.79, 14.5057, 2339.48, 20.4518
23, 0.00000, 1959.48, 21.7817, 1827.08, 17.2788, 1843.43, 19.1806
23, 900.00000, 1070.49, 47.9331, 1140.95, 30.5402, 1609.84, 39.0892
23, 1800.00000, 1503.75, 22.1409, 1549.1, 16.6868, 1770.41, 26.778
23, 2700.00000, 1646.07, 17.2962, 1551.59, 13.2852, 1887.17, 21.3141
24, 0.00000, 1601.87, 17.4361, 1486.78, 12.8329, 1538.23, 14.573
24, 900.00000, 1567.7, 15.8224, 1458.99, 12.2958, 1557.37, 13.3577
24, 1800.00000, 1381.8, 15.1701, 1376.78, 11.8022, 1456.43, 14.0504
24, 2700.00000, 991.326, 25.8165, 1151.73, 18.3374, 1220.8, 21.1691
25, 0.00000, 946.794, 29.3803, 1091.89, 18.5932, 1096.72, 23.4312
25, 900.00000, 1422.49, 13.3369, 1443.8, 11.8517, 1580.83, 12.8344
25, 1800.00000, 1491.98, 14.7348, 1507.2, 11.7619, 1631.96, 15.0287
25, 2700.00000, 1673.77, 13.3413, 1642.48, 11.6033, 1793.66, 12.8378
26, 0.00000, 1729.22, 14.6183, 1730.99, 12.0397, 1785.4, 13.4431
26, 900.00000, 1293.56, 28.299, 1456.17, 20.2369, 1615.34, 20.7222
26, 1800.00000, 1037.26, 58.6741, 1196.63, 32.9457, 1234.52, 37.3864
26, 2700.00000, 1976.08, 16.5619, 2027.98, 14.7623, 2370.81, 21.0153
27, 0.00000, 1948.46, 16.8883, 2027.43, 14.8726, 2220.48, 21.7771
27, 900.00000, 1945.52, 16.6914, 1976.14, 15.1859, 2040.86, 15.9924
27, 1800.00000, 1995.53, 17.4059, 1910.08, 15.0527, 2092.69, 22.2736
27, 2700.00000, 1985.39, 16.0947, 1943.34, 15.7303, 1978.9, 16.9696
28, 0.00000, 1729.22, 21.8051, 1740.73, 18.8333, 1731.28, 20.4431
28, 900.00000, 1763.28, 24.1078, 1724.62, 18.8832, 1698.67, 21.7403
28, 1800.00000, 1965.69, 20.5485, 1843.32, 15.6214, 1770.02, 17.1431
28, 2700.00000, 1907.14, 16.484, 1782.11, 15.7174, 1981.54, 22.1881
29, 0.00000, 1805.21, 18.0351, 1771.82, 16.1219, 1722.88, 17.5509
29, 900.00000, 1852.86, 16.8325, 1846.25, 16.0637, 1870.65, 17.5684
29, 1800.00000, 2435.77, 73.9366, 1041.57, 44.8054, 1009.31, 52.4294
29, 2700.00000, 1105.64, 61.512, 1150.48, 39.9727, 1176.91, 47.1795
30, 0.00000, 2174.84, 17.516, 2046.26, 15.3105, 2263.1, 22.3162
30, 900.00000, 2223.87, 15.9792, 2552.58, 20.1937, 2297.71, 19.4668
30, 1800.00000, 2208.74, 16.7351, 2510.32, 18.8973, 2119.46, 16.7115
30, 2700.00000, 2088.75, 15.8188, 2132.53, 14.6808, 2316.93, 21.6492
31, 0.00000, 1340.61, 38.8097, 1557.6, 24.156, 1683.8, 35.053
31, 900.00000, 3304.76, 52.2367, 838.977, 61.9926, 1460.58, 72.9567
31, 1800.00000, 1220.99, 30.0467, 1416.7, 21.9385, 1440.07, 36.1877
31, 2700.00000, 1498.03, 15.6484, 1574.05, 14.6487, 1509.2, 16.2235
32, 0.00000, 1496.33, 16.4286, 1602.33, 13.84, 1553.77, 23.5924
32, 900.00000, 1349.77, 14.2178, 1381.83, 13.0673, 1366.14, 14.401
32, 1800.00000, 1291.52, 15.834, 1300.93, 12.8274, 1312.42, 16.2064
32, 2700.00000, 672.681, 52.7704, 808.257, 30.2472, 852.07, 34.7917
33, 0.00000, 937.132, 28.2805, 1055.75, 18.6946, 1009.02, 23.6633
33, 900.00000, 1295.54, 14.0197, 1310.12, 13.0598, 1416.74, 13.7204
33, 1800.00000, 1372.82, 15.8084, 1357.04, 13.2569, 1405.55, 14.4981
33, 2700.00000, 1532.63, 14.0069, 1520.59, 13.033, 1617.37, 13.7567
34, 0.00000, 1601.32, 15.8101, 1580.13, 12.9169, 1607, 14.5939
34, 900.00000, 1190.4, 32.7854, 1268.26, 23.6983, 1567.75, 30.7271
34, 1800.00000, 1134.76, 43.7172, 1196.6, 29.2589, 1500.16, 37.1136
34, 2700.00000, 1780, 19.4662, 1803.96, 17.4839, 1980.41, 19.3231
35, 0.00000, 1877.95, 17.5647, 1882.11, 15.1882, 1974.68, 16.3851
35, 900.00000, 1881.89, 16.8815, 1870.69, 15.0564, 2032.52, 16.1231
35, 1800.00000, 2057.42, 17.7903, 1899.5, 15.2429, 2006.05, 19.0991
35, 2700.00000, 1727.52, 21.0084, 1692.11, 17.8606, 1801.54, 19.601
36, 0.00000, 6501.38, 59.6022, 847.536, 58.373, 924.402, 69.3817
36, 900.00000, 1172.57, 44.3813, 1324.51, 29.8085, 1462.67, 43.0149
36, 1800.00000, 1894.11, 17.342, 1907.64, 14.832, 1943.95, 22.9234
36, 2700.00000, 1846.27, 16.1298, 1792.58, 14.6164, 1845.44, 15.6173
37, 0.00000, 1851.36, 17.2679, 1793.22, 14.4419, 1763.24, 16.6901
37, 900.00000, 1912.96, 16.5437, 1861.22, 14.7137, 1892.4, 16.1591
37, 1800.00000, 1545.16, 26.3567, 1611.38, 20.1951, 1564.33, 23.5097
37, 2700.00000, 1961.29, 19.2382, 1948.74, 16.3424, 1968.33, 17.9576
38, 0.00000, 2192.75, 18.5264, 2145.22, 15.0715, 2039.72, 16.6084
38, 900.00000, 2288.32, 17.1401, 2210.09, 14.7614, 2513.62, 23.0002
38, 1800.00000, 2234.56, 17.8722, 2139.89, 14.4581, 2138.52, 17.26
38, 2700.00000, 2203.5, 16.5521, 2095.75, 14.2932, 2353.72, 22.2691
39, 0.00000, 1517.01, 30.753, 1603.86, 21.3765, 1575.16, 26.2638
39, 900.00000, 1147.26, 78.0739, 956.608, 44.9332, 1245.35, 53.1313
39, 1800.00000, 1194.77, 33.1272, 1283.36, 22.714, 1475.62, 36.1667
39, 2700.00000, 1584.21, 15.0721, 1571.65, 13.9366, 1700.21, 16.8814
40, 0.00000, 1529.54, 16.0309, 1547.75, 12.7762, 1712.91, 22.376
40, 900.00000, 1482.66, 13.5711, 1533.19, 12.7065, 1568.73, 13.9018
40, 1800.00000, 1408.43, 14.9733, 1435.82, 12.5188, 1460.69, 14.3234
40, 2700.00000, 2263.47, 83.5465, 659.814, 54.5619, 718.004, 59.6265
41, 0.00000, 674.189, 73.8872, 774.411, 37.4515, 765.087, 49.1539
41, 900.00000, 1417.91, 12.8434, 1470.89, 11.4898, 1584.25, 12.7986
41, 1800.00000, 1476.22, 14.2569, 1541.81, 11.0954, 1575.92, 13.2623
41, 2700.00000, 1646.32, 12.6215, 1675.1, 11.268, 1854.77, 17.4158
42, 0.00000, 1654.94, 14.4038, 1682.92, 11.6551, 1853.49, 19.9091
42, 900.00000, 1395.82, 68.5278, 989.535, 34.1302, 1129.04, 34.5881
42, 1800.00000, 981.429, 83.9197, 891.92, 48.4049, 971.56, 56.2976
42, 2700.00000, 1777.03, 19.3772, 1837.9, 16.2237, 1947.11, 17.9415
43, 0.00000, 1997.2, 17.3462, 2006.85, 14.1574, 2241.72, 22.1301
43, 900.00000, 1995.76, 17.0776, 1975.48, 14.9565, 2091.83, 16.3292
43, 1800.00000, 2126.08, 18.0808, 2080.68, 15.3852, 2003.01, 17.6758
43, 2700.00000, 1690.74, 24.3674, 1673.43, 19.5868, 1891.4, 27.773
44, 0.00000, 10430.3, 50.2993, 793.479, 65.5803, 881.959, 78.8797
44, 900.00000, 1148.05, 46.8189, 1253.93, 31.9681, 1352.95, 46.7575
44, 1800.00000, 1934.4, 17.8865, 1842.36, 15.2788, 1804.66, 20.1739
44, 2700.00000, 1909.16, 16.6658, 1842.58, 15.1485, 1830.5, 16.7373
45, 0.00000, 1889.48, 20.0415, 1806.28, 15.4797, 1743.91, 18.5992
45, 900.00000, 2064.51, 18.7014, 1854.67, 15.4347, 1980.98, 20.0392
45, 1800.00000, 1630.78, 29.8871, 1579.44, 21.8036, 1592.93, 28.2849
45, 2700.00000, 1192.04, 48.3614, 1291.82, 32.4781, 1615.15, 41.3368
46, 0.00000, 2176.46, 17.6145, 2083.1, 15.0331, 2275.65, 22.6826
46, 900.00000, 2197.16, 15.7731, 2176.45, 14.3817, 2448.29, 19.5105
46, 1800.00000, 2320.59, 16.7217, 2266.18, 13.9318, 2403.05, 21.5954
46, 2700.00000, 2299.91, 17.6169, 2146.9, 14.3695, 2240.2, 15.5537
47, 0.00000, 1793.91, 26.7648, 1776.51, 19.334, 2019.3, 30.8346
47, 900.00000, 4440.16, 62.8364, 843.086, 60.7757, 1272.24, 68.121
47, 1800.00000, 1272.13, 31.4991, 1368.53, 21.9565, 1548.96, 34.2031
47, 2700.00000, 1652.77, 14.531, 1595.54, 12.8801, 1930.58, 21.3767
48, 0.00000, 1585.48, 15.2539, 1577.79, 12.3052, 1786.17, 21.6138
48, 900.00000, 1479.88, 13.2998, 1477.84, 11.8868, 1772.8, 20.7958
48, 1800.00000, 1370.42, 15.2439, 1392.99, 12.1622, 1473.49, 14.8216
48, 2700.00000, 11071.4, 60.8118, 531.458, 77.2859, 628.918, 78.6904
49, 0.00000, 719.907, 103.243, 611.836, 53.6671, 877.58, 68.6883
49, 900.00000, 1393.66, 13.0422, 1424.14, 11.4714, 1756.06, 20.0178
49, 1800.00000, 1449.5, 14.1839, 1489.82, 11.1533, 1582.72, 13.1625
49, 2700.00000, 1612.72, 12.5661, 1611.45, 10.8583, 1772.13, 12.4998
50, 0.00000, 1634.22, 14.2028, 1659.19, 11.0249, 1716.98, 12.9541
50, 900.00000, 961.599, 48.8811, 1145.23, 26.729, 1491.1, 34.7267
50, 1800.00000, 1529.17, 85.7271, 789.791, 58.6846, 1180.18, 66.3146
50, 2700.00000, 1663.21, 20.8731, 1714.99, 16.7403, 1860.2, 18.4643
51, 0.00000, 1890.78, 16.7604, 1911.5, 14.4175, 2141.09, 18.2385
51, 900.00000, 1906.73, 16.3929, 1881.28, 14.6537, 2118.82, 19.8039
51, 1800.00000, 1950.4, 16.902, 1852.43, 14.5405, 1954.76, 20.2429
51, 2700.00000, 1552.82, 23.5077, 1552.44, 19.707, 1889.76, 28.3109
52, 0.00000, 2211.16, 78.0973, 844.586, 55.4868, 1218.56, 65.5721
52, 900.00000, 1039.95, 50.5667, 1197.16, 32.162, 1476.96, 45.2537
52, 1800.00000, 1839.93, 17.3046, 1764.59, 14.4231, 1987.28, 23.558
52, 2700.00000, 1722.31, 16.7332, 1705.06, 14.919, 1792.15, 16.6841
53, 0.00000, 1706.35, 19.0983, 1716.95, 15.451, 1674.19, 17.9847
53, 900.00000, 1858.64, 18.3652, 1764.28, 15.2884, 1829.1, 17.0247
53, 1800.00000, 6087.06, 63.7444, 875.463, 51.9629, 1155.79, 62.6014
53, 2700.00000, 1246.05, -120.116, 964.584, 56.024, 1156.08, 70.0798
54, 0.00000, 2039.71, 17.7831, 2004.79, 15.4436, 1969.64, 17.919
54, 900.00000, 2194.41, 16.7781, 2057.05, 14.5488, 2341.36, 21.4335
54, 1800.00000, 2195.39, 16.9059, 2126.48, 14.4499, 2094.06, 16.5572
54, 2700.00000, 2151.12, 16.3379, 2048.04, 14.3917, 2119.74, 16.254
55, 0.00000, 1857.75, 21.6749, 1803.33, 17.0404, 2065.56, 29.5816
55, 900.00000, 5186.23, 66.4738, 813.551, 64.366, 1506.88, 64.9372
55, 1800.00000, 1144.48, 38.1918, 1234.72, 25.1538, 1494.59, 37.9974
55, 2700.00000, 1627.55, 14.4454, 1544.66, 12.4854, 1779.73, 17.004
56, 0.00000, 1556.26, 15.0235, 1559.82, 12.2964, 1590.41, 14.3981
56, 900.00000, 1506.67, 12.9781, 1490.8, 11.967, 1599.52, 13.272
56, 1800.00000, 1375.71, 15.4339, 1404.78, 12.1047, 1642.09, 22.1179
56, 2700.00000, 1291.23, 90.6327, 656.794, 48.7986, 879.837, 58.4465
57, 0.00000, 806.418, 101.868, 642.83, 52.6583, 714.044, 69.8341
57, 900.00000, 1497.75, 12.2971, 1526.98, 11.0518, 1665.6, 12.4774
57, 1800.00000, 1565.78, 13.5112, 1589.26, 10.5788, 1685.88, 12.7231
57, 2700.00000, 1744.22, 12.2722, 1741.19, 10.6676, 2054.85, 18.6275
58, 0.00000, 1811.96, 13.7362, 1851.22, 11.1065, 2039.23, 19.0791
58, 900.00000, 2924.75, 63.6133, 1087.79, 33.0061, 1414.54, 38.4114
58, 1800.00000, 15376, -102.212, 904.543, 53.8075, 1470.93, 73.804
58, 2700.00000, 1736.99, 21.089, 1883.99, 16.8374, 2164.62, 24.5993
59, 0.00000, 2069.6, 16.5465, 2110.7, 13.121, 2274.56, 18.8994
59, 900.00000, 2153.73, 16.1154, 2138.35, 13.1373, 2439.46, 19.5194
59, 1800.00000, 2204.93, 18.3379, 2159.26, 13.6222, 2331.88, 20.4607
59, 2700.00000, 1743.42, 28.3547, 1731.1, 19.1548, 2055.85, 25.9021
60, 0.00000, 13903.6, 41.0807, 773.412, 61.8326, 1023.67, 67.1915
60, 900.00000, 1242.28, 48.1775, 1310.31, 31.1353, 1353.51, 37.6821
60, 1800.00000, 2068.58, 17.6167, 1962.15, 13.6562, 1927, 15.9175
60, 2700.00000, 1898.58, 15.3545, 1865.67, 13.7019, 2050.55, 18.9499
61, 0.00000, 1848.61, 16.6738, 1804.62, 13.5408, 2008.8, 22.111
61, 900.00000, 1964.69, 16.2474, 1888.55, 13.7646, 2124.28, 20.9643
61, 1800.00000, 7461.15, 56.8572, 927.548, 46.9631, 1174.67, 56.7205
61, 2700.00000, 3100.25, -130.713, 1021.08, 53.1747, 1077.67, 65.4865
62, 0.00000, 2204.84, 17.7493, 2163.44, 14.5029, 2092.24, 16.6012
62, 900.00000, 2285.22, 16.2577, 2136.35, 13.8507, 2458.2, 21.0882
62, 1800.00000, 2423.25, 20.5533, 2136.51, 13.8888, 2127.88, 16.126
62, 2700.00000, 2327.1, 19.8461, 2117.12, 13.9839, 2111.7, 15.6266
63, 0.00000, 1384.34, 46.1252, 1440.3, 25.4747, 1385.38, 31.2054
63, 900.00000, 4850.35, 22.8147, 776.316, 62.7663, 1338.33, 64.7611
63, 1800.00000, 1208.29, 32.0227, 1339.83, 22.1081, 1344.32, 27.7505
63, 2700.00000, 1559.92, 14.8181, 1549.89, 13.344, 1685.35, 14.8278
64, 0.00000, 1508.24, 15.799, 1495.26, 12.8148, 1516.92, 14.7606
64, 900.00000, 1450.41, 13.4974, 1413.72, 12.2953, 1546.6, 13.5634
64, 1800.00000, 1256.62, 17.5893, 1277.5, 13.5664, 1341.66, 15.7632
64, 2700.00000, 975.584, 95.289, 623.556, 49.7545, 717.938, 55.2821
65, 0.00000, 837.827, 107.033, 572.13, 62.3326, 662.685, 78.5782
65, 900.00000, 1372.81, 13.2728, 1387.66, 11.862, 1505.97, 12.8719
65, 1800.00000, 1422.28, 15.0092, 1422.88, 11.6866, 1498.55, 13.6792
65, 2700.00000, 1554.47, 13.0168, 1570.15, 11.5585, 1660.95, 12.8993
66, 0.00000, 1585.25, 14.58, 1663.86, 12.227, 1670.99, 13.6933
66, 900.00000, 1415.28, 21.1791, 1510.58, 16.9705, 1779.99, 24.4317
66, 1800.00000, 1278.97, 32.0512, 1386.68, 22.3824, 1457.16, 25.3393
66, 2700.00000, 1583.34, 24.7047, 1617.62, 18.638, 1716.55, 21.087
67, 0.00000, 2013.02, 19.4533, 1968.61, 14.8136, 2109.93, 21.3168
67, 900.00000, 1955.43, 18.2384, 1906.91, 15.0543, 1999.54, 15.3701
67, 1800.00000, 2043.94, 19.0716, 1909.61, 15.2606, 1896.15, 16.5353
67, 2700.00000, 1444.34, 29.6514, 1463.17, 22.3675, 1743.66, 30.2091
68, 0.00000, 24443.3, 31.9751, 648.845, 86.2843, 905.445, 82.8012
68, 900.00000, 1083.31, 58.3987, 1148.11, 38.2516, 1353.52, 51.4421
68, 1800.00000, 1903.29, 17.7157, 1864.43, 14.8902, 1758.65, 16.4489
68, 2700.00000, 1836.27, 16.0424, 1819.48, 14.7495, 1876.29, 15.977
69, 0.00000, 1879.33, 17.074, 1844.98, 14.7642, 1799.16, 16.5842
69, 900.00000, 1894.53, 16.249, 1839.48, 14.2537, 2059.86, 21.6572
69, 1800.00000, 11822, 53.4037, 884.856, 51.1332, 916.77, 59.2812
69, 2700.00000, 11386.8, -126.075, 1070.41, 55.7954, 1391.7, 71.6736
70, 0.00000, 2156.12, 18.6367, 2061.3, 14.9606, 2192.46, 22.4318
70, 900.00000, 2298.83, 15.7522, 2199.2, 13.752, 2415.03, 19.8259
70, 1800.00000, 2259.68, 16.6106, 2195.19, 13.5365, 2337.45, 20.2853
70, 2700.00000, 2177.18, 15.656, 2100.32, 13.5849, 2417.96, 22.8792
71, 0.00000, 1381.51, 41.8611, 1449.8, 25.0814, 1631.83, 36.1015
71, 900.00000, 1072.86, 54.1793, 1137.13, 33.3217, 1343.95, 37.2457
71, 1800.00000, 1088.93, 42.1817, 1233.36, 26.1556, 1255.51, 33.3932
71, 2700.00000, 1662.43, 14.6199, 1631.08, 12.3816, 1987.65, 20.7922
72, 0.00000, 1559.22, 15.6796, 1557.17, 12.4463, 1621.01, 14.4644
72, 900.00000, 1477.71, 13.081, 1469.77, 11.7254, 1638.73, 13.0358
72, 1800.00000, 1274.18, 18.014, 1310.72, 13.3075, 1588.88, 23.2264
72, 2700.00000, 50249.1, 46.2166, 530.312, 100.35, 385.185, 83.2406
73, 0.00000, 3159.35, -132.078, 594.482, 73.7346, 712.591, 86.2421
73, 900.00000, 1434.01, 12.2413, 1470.14, 10.9444, 1662.56, 11.9674
73, 1800.00000, 1499.71, 14.1441, 1515.14, 11.1684, 1636.3, 12.5641
73, 2700.00000, 1613.39, 12.5076, 1645.03, 11.056, 1782.87, 12.0269
74, 0.00000, 1618.43, 14.1071, 1671.42, 11.0501, 1704.6, 13.0632
