hour, t(sec), S1 (kVA), Ang1, S2 (kVA), Ang2, S3 (kVA), Ang3
0, 900.00000, 2898.5, 12.4823, 2916.32, 13.3879, 3036.11, 13.4131
0, 1800.00000, 2759.54, 12.5757, 2836.51, 13.1403, 2960.47, 13.5146
0, 2700.00000, 1271.2, 52.8364, 1503.64, 40.1312, 1593.61, 37.2494
1, 0.00000, 1682.55, 31.2239, 1915.85, 26.1763, 2069.62, 25.2627
1, 900.00000, 2957.51, 11.76, 3000.1, 12.133, 3104.83, 12.8734
1, 1800.00000, 3040.24, 12.0002, 3111.55, 12.3052, 3239.73, 12.9328
1, 2700.00000, 3254, 11.9527, 3330.41, 12.1195, 3475.55, 12.7013
2, 0.00000, 3343.04, 11.8259, 3388.77, 12.1002, 3556.33, 12.7344
2, 900.00000, 3024.11, 17.8279, 3200.51, 17.0455, 3425.69, 17.2518
2, 1800.00000, 3467.08, 15.1916, 3638.75, 15.1049, 3813.94, 15.6068
2, 2700.00000, 3938.04, 13.3472, 4259.14, 13.2294, 4300.94, 14.1985
3, 0.00000, 3766.2, 13.5322, 3985.66, 13.7339, 4040.34, 14.7267
3, 900.00000, 3705.7, 14.1645, 3852.61, 14.7826, 4022.2, 15.7449
3, 1800.00000, 3740.24, 13.971, 3726.6, 14.9721, 4049.89, 15.7937
3, 2700.00000, 3665.24, 14.6065, 3633.59, 15.5555, 3947.26, 16.283
4, 0.00000, 3399.16, 16.0132, 3427.11, 16.7395, 3643.68, 17.5808
4, 900.00000, 3455.81, 15.2446, 3511.43, 16.3183, 3738.62, 17.0998
4, 1800.00000, 3446.37, 15.1023, 3482.26, 16.1373, 3686.41, 16.6591
4, 2700.00000, 3326.66, 15.2184, 3373, 16.0657, 3545.91, 16.9024
5, 0.00000, 3311.56, 15.6469, 3262.95, 16.3849, 3448.79, 17.1337
5, 900.00000, 3382.95, 15.539, 3367.92, 16.3936, 3568.07, 17.0516
5, 1800.00000, 2960.84, 20.656, 3066.88, 20.586, 3170.13, 20.6518
5, 2700.00000, 3265.96, 19.3078, 3351.55, 18.902, 3462.28, 19.186
6, 0.00000, 3826.55, 14.9412, 3899.19, 15.6001, 3979.74, 15.7604
6, 900.00000, 4010.19, 14.453, 4164.59, 15.0515, 4199.4, 15.2027
6, 1800.00000, 3987.21, 14.1261, 4194.19, 14.6421, 4202.39, 14.9206
6, 2700.00000, 4023.47, 14.1048, 4097.76, 14.7802, 4078.06, 14.8318
7, 0.00000, 3744.25, 15.4773, 3876.1, 16.0705, 3896.3, 16.0526
7, 900.00000, 3466.62, 15.5693, 3543.74, 16.2341, 3629.32, 16.2173
7, 1800.00000, 3258.68, 14.2616, 3313.86, 14.6717, 3432.43, 14.7502
7, 2700.00000, 2970.37, 13.5372, 3000.92, 14.349, 3123.48, 14.2038
8, 0.00000, 2812.87, 13.2413, 2840.84, 13.9602, 2990.02, 13.9516
8, 900.00000, 2654.94, 12.7278, 2674, 13.7389, 2785.36, 13.6161
8, 1800.00000, 2472.98, 13.1428, 2523.58, 13.5468, 2599.44, 13.6579
8, 2700.00000, 1082.83, 93.1157, 1062.41, 68.9443, 1101.63, 62.8262
9, 0.00000, 1072.34, 59.2656, 1196.99, 44.5551, 1368.12, 40.0254
9, 900.00000, 2502.81, 11.9289, 2575.37, 12.5947, 2652.09, 13.2721
9, 1800.00000, 2558.22, 12.058, 2632.61, 12.5116, 2758.15, 13.3001
9, 2700.00000, 2738.64, 12.0877, 2838.28, 12.5038, 2993.42, 13.1097
10, 0.00000, 2832.7, 12.26, 2910.03, 12.9078, 3078.4, 13.2936
10, 900.00000, 2859.08, 15.8215, 2970.95, 15.8689, 3106.53, 15.9669
10, 1800.00000, 3012.47, 15.7655, 3183.47, 16.0259, 3294.93, 16.5112
10, 2700.00000, 3413.73, 13.878, 3667.58, 14.3434, 3779.98, 15.2203
11, 0.00000, 3337.93, 14.3561, 3576.01, 14.493, 3588.79, 15.5815
11, 900.00000, 3269.99, 14.6514, 3479.62, 15.3179, 3627.97, 16.4465
11, 1800.00000, 3449.89, 14.4724, 3498.25, 15.7391, 3806.3, 16.406
11, 2700.00000, 3456.23, 14.9993, 3426.54, 15.9282, 3721.76, 16.8848
12, 0.00000, 3228.88, 15.5851, 3306.64, 16.4952, 3541.09, 17.4933
12, 900.00000, 3282.5, 16.0855, 3335.62, 16.6873, 3590.3, 17.6627
12, 1800.00000, 3298.24, 15.1481, 3283.19, 15.9143, 3505.59, 16.861
12, 2700.00000, 3223.01, 15.038, 3263.11, 15.7216, 3402.99, 16.7754
13, 0.00000, 3162.84, 15.3087, 3182.84, 16.0742, 3402.68, 17.0033
13, 900.00000, 3196.95, 14.9671, 3300.51, 15.5583, 3439.77, 16.4368
13, 1800.00000, 2907.29, 19.2748, 3041.53, 19.2571, 3189.73, 19.4443
13, 2700.00000, 2882.98, 22.4498, 3001.38, 21.5904, 3153.1, 21.3832
14, 0.00000, 3647.79, 15.1393, 3755.47, 15.8676, 3824.4, 15.999
14, 900.00000, 3749.67, 14.7064, 3908.43, 15.2279, 3991.93, 15.4123
14, 1800.00000, 3679.56, 14.3067, 3899.58, 14.9467, 3921.07, 15.2608
14, 2700.00000, 3624.35, 14.299, 3801.36, 15.175, 3774.01, 15.2246
15, 0.00000, 3456.57, 16.3642, 3587.91, 16.5075, 3606.52, 16.6558
15, 900.00000, 2834.47, 19.6003, 2925.99, 19.6726, 3054.55, 19.4679
15, 1800.00000, 2691.76, 17.6679, 2797.12, 17.3837, 2926.29, 17.5994
15, 2700.00000, 2713.87, 13.8434, 2750.81, 14.7177, 2879.64, 14.6285
16, 0.00000, 2627.54, 13.3952, 2607.25, 14.3161, 2721.19, 14.3268
16, 900.00000, 2512.34, 12.9782, 2493.15, 13.9669, 2597.17, 13.8063
16, 1800.00000, 2289.9, 12.9598, 2353.33, 13.6746, 2443.43, 13.7419
16, 2700.00000, 1536.16, 26.814, 1758.29, 23.544, 1824.5, 22.9383
17, 0.00000, 1141.62, 46.2593, 1325.4, 35.7826, 1475.52, 33.2862
17, 900.00000, 2428.78, 12.3169, 2488.17, 12.8481, 2585.12, 13.3536
17, 1800.00000, 2485.41, 12.2914, 2535.12, 12.69, 2673.16, 13.3109
17, 2700.00000, 2671.84, 12.2613, 2774.52, 12.5789, 2929.72, 13.1606
18, 0.00000, 2784.98, 12.3532, 2871.28, 12.8067, 3033.38, 13.3937
18, 900.00000, 2874.76, 14.7787, 2958.47, 15.2169, 3109.28, 15.4459
18, 1800.00000, 1517.14, 61.1101, 1554.18, 50.3176, 1793.03, 44.4438
18, 2700.00000, 3333.97, 15.2455, 3449.19, 15.0396, 3645.76, 16.0443
19, 0.00000, 3402.18, 14.0146, 3550.2, 14.3256, 3619.4, 15.5198
19, 900.00000, 3379.72, 14.1742, 3505.94, 14.9052, 3656.7, 16.0098
19, 1800.00000, 3568.04, 13.8654, 3519.55, 15.0807, 3793.54, 15.7721
19, 2700.00000, 3307.8, 16.8738, 3328.42, 17.5873, 3507.68, 18.1864
20, 0.00000, 1601.13, 61.9258, 1727.33, 50.5749, 1941.14, 46.4651
20, 900.00000, 2132.53, 32.7522, 2242.92, 29.9091, 2573.98, 28.6573
20, 1800.00000, 3214.71, 14.8929, 3251.43, 16.0411, 3460.47, 16.8401
20, 2700.00000, 3109.38, 14.9797, 3221.62, 15.7195, 3281.76, 16.8475
21, 0.00000, 3093.98, 15.0923, 3146.89, 15.8591, 3305.04, 16.9725
21, 900.00000, 3151.08, 14.919, 3179.97, 15.7935, 3388.26, 16.4895
21, 1800.00000, 2192.91, 31.1013, 2303.91, 29.0436, 2492.39, 27.7943
21, 2700.00000, 2642.51, 25.3463, 2762.15, 23.8364, 2975.06, 23.1447
22, 0.00000, 3517.44, 15.6341, 3589.36, 15.9935, 3694.65, 16.2911
22, 900.00000, 3651.22, 14.8933, 3675.8, 15.4317, 3727.57, 15.6232
22, 1800.00000, 3671.04, 14.3644, 3807.44, 15.1639, 3846.17, 15.3793
22, 2700.00000, 3549.9, 14.1702, 3633.86, 15.0169, 3705.61, 15.1713
23, 0.00000, 3149.02, 17.2103, 3323.08, 17.5754, 3370.64, 17.4799
23, 900.00000, 1956.11, 35.7943, 2103.48, 31.5441, 2208.75, 29.9936
23, 1800.00000, 2567.97, 18.5799, 2554.19, 18.6567, 2716.03, 18.309
23, 2700.00000, 2711.98, 14.0073, 2645.92, 15.0445, 2740.5, 14.7964
24, 0.00000, 2637.64, 13.5015, 2573.79, 14.3401, 2658.51, 14.2827
24, 900.00000, 2504.17, 13.1446, 2495.27, 14.1736, 2570.07, 14.0282
24, 1800.00000, 2314.13, 13.1316, 2350.34, 13.8656, 2431.98, 14.0396
24, 2700.00000, 1717.47, 23.0183, 1892.5, 21.2455, 1969.16, 20.9544
25, 0.00000, 1686.25, 23.3493, 1840.34, 20.9923, 1959.27, 21.0464
25, 900.00000, 2407.39, 12.5204, 2431.13, 13.1472, 2520.11, 13.7329
25, 1800.00000, 2483.49, 12.7091, 2546.8, 13.2744, 2667.33, 13.9986
25, 2700.00000, 2673.76, 12.7684, 2776.04, 13.309, 2913.65, 13.8545
26, 0.00000, 2778.91, 12.908, 2855.56, 13.7695, 2992.86, 14.0048
26, 900.00000, 2307.09, 22.4805, 2567.52, 20.8456, 2642.43, 20.932
26, 1800.00000, 1738.85, 41.6107, 1995.94, 34.1808, 2150.14, 33.006
26, 2700.00000, 3167.46, 15.0192, 3450.08, 15.4297, 3563.47, 16.2984
27, 0.00000, 3137.28, 14.6739, 3351.23, 15.1663, 3540.41, 16.1646
27, 900.00000, 3185.52, 15.1223, 3393.94, 15.9255, 3542.72, 16.877
27, 1800.00000, 3384.21, 14.4018, 3403.68, 15.6311, 3688.44, 16.2319
27, 2700.00000, 3406.61, 14.9896, 3346.28, 16.0082, 3564.56, 16.8472
28, 0.00000, 3009.84, 18.0722, 3096.63, 18.7738, 3207.64, 19.6974
28, 900.00000, 2887.69, 20.0584, 2868.21, 21.0564, 3107.51, 21.137
28, 1800.00000, 3228.05, 15.373, 3272.22, 16.4364, 3385.71, 17.0662
28, 2700.00000, 3126.34, 15.5633, 3177.97, 16.4421, 3251.92, 17.1453
29, 0.00000, 3092.41, 15.7223, 3161.52, 16.5998, 3263.86, 17.409
29, 900.00000, 3169.85, 15.883, 3206.8, 16.8518, 3297.25, 17.2319
29, 1800.00000, 1692.71, 53.4705, 1901.1, 44.5216, 1991.53, 41.8805
29, 2700.00000, 1879.19, 48.5142, 2080.02, 40.6766, 2200.74, 38.2094
30, 0.00000, 3607.3, 15.4929, 3740.84, 16.3086, 3650.78, 16.5319
30, 900.00000, 3768.55, 15.1656, 3728.37, 15.9427, 3875.73, 16.1202
30, 1800.00000, 3665.73, 14.9557, 3787.41, 15.6729, 3894.2, 15.8779
30, 2700.00000, 3506.2, 14.8586, 3686.29, 15.6042, 3691.58, 15.9986
31, 0.00000, 2397.89, 27.8293, 2674.78, 25.9682, 2703.56, 25.3387
31, 900.00000, 1508.38, 81.6891, 1510.64, 66.439, 1565.84, 60.7838
31, 1800.00000, 2264.3, 24.1009, 2348.71, 22.8897, 2410.36, 22.7973
31, 2700.00000, 2555.7, 15.0417, 2625.06, 16.3011, 2659.33, 16.1125
32, 0.00000, 2532.08, 14.6308, 2512.67, 15.832, 2594.2, 15.4524
32, 900.00000, 2337, 14.0899, 2329.7, 15.3917, 2399.62, 15.0422
32, 1800.00000, 2172.78, 13.8971, 2244.98, 14.9267, 2282.85, 14.8653
32, 2700.00000, 1201.36, 40.0241, 1407.1, 32.8667, 1449.68, 31.8739
33, 0.00000, 1648.13, 22.7996, 1819.32, 20.9142, 1891.13, 21.0875
33, 900.00000, 2214.86, 13.4815, 2289, 14.2949, 2320.38, 14.8335
33, 1800.00000, 2272.31, 13.4917, 2386.46, 14.3641, 2424.86, 14.8561
33, 2700.00000, 2506, 13.8729, 2625.24, 14.279, 2728.7, 14.947
34, 0.00000, 2652.08, 14.0037, 2706.71, 14.7162, 2838.16, 14.9235
34, 900.00000, 2071.59, 27.7205, 2250.85, 25.4995, 2343.19, 25.0629
34, 1800.00000, 2059.47, 32.3514, 2193.21, 29.3315, 2325.09, 28.8987
34, 2700.00000, 2950.99, 17.4496, 3111.31, 17.5312, 3279.25, 18.4526
35, 0.00000, 3093.93, 15.1467, 3259.25, 15.8869, 3369.63, 16.8434
35, 900.00000, 3099.19, 15.5391, 3267.48, 16.0656, 3410.34, 17.5041
35, 1800.00000, 3358.39, 15.0145, 3332.63, 15.9697, 3572.6, 17.0447
35, 2700.00000, 3005.56, 18.7199, 3057.8, 19.2653, 3256.49, 19.9602
36, 0.00000, 1562.78, 73.5773, 1605.29, 60.3928, 1829.84, 53.5956
36, 900.00000, 2085.34, 36.0063, 2208.33, 32.339, 2478.12, 31.0608
36, 1800.00000, 3273.59, 15.1054, 3220.56, 16.1297, 3347.98, 16.8707
36, 2700.00000, 3194.12, 14.8375, 3198.84, 15.7011, 3275.2, 16.715
37, 0.00000, 3195.83, 14.7952, 3234.88, 15.8073, 3299.25, 16.7253
37, 900.00000, 3240.73, 15.5624, 3278.18, 16.3377, 3363.78, 16.8421
37, 1800.00000, 2744.09, 21.2587, 2850.34, 20.8688, 2915.98, 21.2221
37, 2700.00000, 3392.07, 17.234, 3466.89, 17.6565, 3536.76, 17.8818
38, 0.00000, 3588.1, 15.4047, 3677.46, 15.9954, 3705.75, 16.4684
38, 900.00000, 3755.5, 15.0585, 3790.79, 15.7812, 3841.77, 16.1019
38, 1800.00000, 3665.14, 14.8114, 3689.49, 15.7034, 3763.53, 15.776
38, 2700.00000, 3598.15, 14.9636, 3588.2, 15.4193, 3637.12, 15.6402
39, 0.00000, 2616.51, 23.4301, 2817.36, 22.709, 2854.38, 22.5708
39, 900.00000, 1546.08, 57.2999, 1708.39, 46.3894, 1800.31, 43.6407
39, 1800.00000, 2051.41, 27.0835, 2179.79, 24.8634, 2361.87, 24.0912
39, 2700.00000, 2666.82, 14.5991, 2681.23, 15.4049, 2782.86, 15.5363
40, 0.00000, 2618.1, 14.3936, 2670.49, 15.3453, 2709.13, 14.9592
40, 900.00000, 2471.82, 13.3858, 2503.95, 14.5411, 2614.15, 14.7359
40, 1800.00000, 2326.59, 13.481, 2399.06, 14.3313, 2474.82, 14.6778
40, 2700.00000, 1024.21, 81.6742, 1096.27, 59.8232, 1167.46, 55.1087
41, 0.00000, 1081.68, 56.2636, 1209.27, 43.0787, 1355.96, 39.5086
41, 900.00000, 2397.16, 12.5712, 2443.45, 13.1851, 2546.49, 13.6822
41, 1800.00000, 2433.58, 12.4605, 2517.37, 13.1919, 2601.54, 13.4816
41, 2700.00000, 2577.52, 12.4441, 2698.93, 12.9307, 2827.88, 13.6066
42, 0.00000, 2674.11, 12.8595, 2712.53, 13.4098, 2863.43, 13.998
42, 900.00000, 1409.33, 46.6938, 1658.29, 37.4852, 1789.29, 34.908
42, 1800.00000, 1339.55, 69.3267, 1488.86, 51.849, 1707.05, 46.3429
42, 2700.00000, 2734.97, 18.007, 3020.92, 17.5739, 3268.29, 19.2832
43, 0.00000, 3111.48, 14.8949, 3305.73, 15.4072, 3448, 16.2086
43, 900.00000, 3164.8, 15.3111, 3319.46, 16.0472, 3482.05, 17.0698
43, 1800.00000, 3434.39, 14.9286, 3425.28, 16.0293, 3663.04, 16.8579
43, 2700.00000, 2752.17, 20.924, 2853.57, 21.2693, 3040.79, 21.6313
44, 0.00000, 1572.89, 81.4545, 1525.72, 69.9104, 1728.19, 60.4233
44, 900.00000, 1917.28, 40.077, 2074.41, 35.6772, 2355.92, 33.6284
44, 1800.00000, 3116.07, 15.8474, 3146.79, 16.7215, 3314.26, 17.6003
44, 2700.00000, 3155.11, 15.6463, 3121.81, 16.3557, 3323.51, 17.2762
45, 0.00000, 3093.06, 15.7967, 3079.71, 16.8248, 3274.02, 17.6913
45, 900.00000, 3187.1, 16.1085, 3238.83, 16.948, 3375.65, 17.6881
45, 1800.00000, 2586.87, 23.9574, 2785.37, 22.9706, 2833.85, 23.0952
45, 2700.00000, 2120.44, 38.0982, 2353.66, 32.747, 2447.15, 31.998
46, 0.00000, 3550.4, 15.5428, 3594.79, 16.1133, 3652.42, 16.4362
46, 900.00000, 3674.15, 14.9993, 3720.85, 15.6272, 3798.82, 15.8135
46, 1800.00000, 3730, 14.6516, 3748.49, 15.3165, 3833.48, 15.601
46, 2700.00000, 3636.1, 14.9744, 3665.96, 15.3511, 3732.52, 15.5818
47, 0.00000, 2904.45, 20.9788, 3056.04, 20.614, 3104.69, 20.4259
47, 900.00000, 1552.23, 81.0404, 1535.32, 65.0758, 1639.35, 58.2474
47, 1800.00000, 2146.66, 26.1568, 2342.1, 23.4402, 2475.96, 23.0462
47, 2700.00000, 2692.28, 14.1666, 2737.75, 15.0778, 2841.08, 15.1959
48, 0.00000, 2566.51, 13.4373, 2605.99, 14.312, 2723.7, 14.5435
48, 900.00000, 2410.04, 12.8977, 2400.05, 14.0181, 2530.64, 14.2337
48, 1800.00000, 2178.75, 13.4968, 2226.93, 14.2435, 2348.88, 14.5556
48, 2700.00000, 1246.25, 115.224, 1020.18, 96.0821, 1007.86, 87.6565
49, 0.00000, 957.511, 90.228, 930.779, 68.4691, 1046.53, 58.6208
49, 900.00000, 2236.38, 12.3374, 2271.24, 13.2183, 2357.52, 13.7131
49, 1800.00000, 2283.86, 12.2429, 2322.94, 13.0611, 2416.08, 13.4273
49, 2700.00000, 2435.75, 12.2118, 2518.56, 12.9003, 2632.19, 13.2554
50, 0.00000, 2503.76, 12.4557, 2512.8, 12.9607, 2697.55, 13.473
50, 900.00000, 1551.13, 36.1728, 1696.42, 32.0196, 1842.4, 29.8383
50, 1800.00000, 1308.55, 86.0395, 1275.73, 68.597, 1400.84, 59.9152
50, 2700.00000, 2568.14, 19.6524, 2800.77, 18.9538, 2856.55, 19.2805
51, 0.00000, 2955.87, 14.5734, 3039.2, 15.221, 3139.63, 16.2168
51, 900.00000, 2976.73, 15.4953, 3025.7, 16.1548, 3206.15, 17.435
51, 1800.00000, 3130.95, 14.7754, 3052.44, 16.1159, 3344.15, 16.7287
51, 2700.00000, 2416.81, 21.1234, 2582.83, 21.8645, 2703.64, 22.383
52, 0.00000, 1416.49, 73.6335, 1473.74, 59.7787, 1597.68, 56.2523
52, 900.00000, 1706.37, 42.6102, 1778.63, 38.6099, 2042.69, 36.3423
52, 1800.00000, 2871.6, 15.6755, 2845.75, 16.7743, 2974.11, 17.5476
52, 2700.00000, 2805.12, 15.1897, 2860.84, 16.5368, 2879.41, 17.5325
53, 0.00000, 2768.63, 15.3234, 2740.32, 16.7555, 2877.25, 17.7348
53, 900.00000, 2868.33, 15.4647, 2899.15, 16.6735, 2971.86, 17.3321
53, 1800.00000, 1329.76, 74.6486, 1448.57, 59.9556, 1512.14, 55.7843
53, 2700.00000, 1487.09, 79.131, 1517.74, 64.6919, 1660.6, 56.6902
54, 0.00000, 3315.28, 15.6103, 3297.64, 16.6709, 3439.6, 16.7924
54, 900.00000, 3519.45, 14.8724, 3477.3, 16.0761, 3575.9, 16.1513
54, 1800.00000, 3538, 14.901, 3575.06, 15.5258, 3650.52, 15.712
54, 2700.00000, 3512.75, 14.7039, 3527, 15.4657, 3542.35, 15.6583
55, 0.00000, 3023.31, 17.9821, 3150.7, 18.4214, 3170.57, 18.3067
55, 900.00000, 1474.5, 86.6111, 1473.33, 68.3098, 1481.77, 63.8014
55, 1800.00000, 1859.02, 31.8144, 1955.53, 28.5202, 2106.48, 27.0218
55, 2700.00000, 2624.09, 13.589, 2601.79, 14.5548, 2689, 14.5092
56, 0.00000, 2601.88, 13.3038, 2579.97, 14.0868, 2683.27, 13.8889
56, 900.00000, 2508.72, 12.66, 2442.14, 13.608, 2577.01, 13.6346
56, 1800.00000, 2258.54, 13.7827, 2324.32, 14.4576, 2389.45, 14.3489
56, 2700.00000, 1010.93, 78.9627, 1096.38, 57.8128, 1150.54, 52.5876
57, 0.00000, 1035.44, 84.924, 1039.71, 62.929, 1175.2, 54.2886
57, 900.00000, 2513.78, 11.814, 2584.02, 12.6841, 2643.73, 13.0895
57, 1800.00000, 2574.88, 11.6649, 2625.81, 12.4267, 2754.42, 13.0019
57, 2700.00000, 2784.31, 11.8578, 2819.33, 12.3749, 3026.52, 13.1788
58, 0.00000, 3007.82, 12.7862, 2964.29, 12.9395, 3154.86, 13.4918
58, 900.00000, 1673.22, 44.5666, 1836.05, 37.4863, 1991.36, 34.4875
58, 1800.00000, 1492.73, 82.127, 1524.47, 63.9415, 1683.95, 55.641
58, 2700.00000, 2886.86, 19.2239, 3107.78, 18.4545, 3232.57, 18.8293
59, 0.00000, 3384.88, 13.6697, 3584.45, 14.3472, 3655.02, 15.3905
59, 900.00000, 3409.12, 14.1706, 3565.79, 14.7346, 3691.2, 15.763
59, 1800.00000, 3682.44, 13.7194, 3596.6, 14.5802, 3857.51, 15.5902
59, 2700.00000, 2986.53, 19.5515, 2943.58, 20.3819, 3162.35, 20.6
60, 0.00000, 1568.17, 75.2519, 1548.35, 63.7838, 1759.2, 56.4765
60, 900.00000, 1971.63, 38.9929, 2086.57, 34.7134, 2456.68, 31.9182
60, 1800.00000, 3380.79, 13.9689, 3402.46, 15.0076, 3496.35, 15.6928
60, 2700.00000, 3320.02, 14.1287, 3267.93, 14.9363, 3424.19, 15.8004
61, 0.00000, 3205.56, 14.1112, 3279.41, 15.0405, 3381.78, 15.9047
61, 900.00000, 3333.92, 14.366, 3331.6, 15.2686, 3465.55, 15.6963
61, 1800.00000, 1584.88, 59.8676, 1785.08, 48.158, 1874.78, 45.1489
61, 2700.00000, 1692.41, 66.8488, 1756.26, 54.8309, 1906.44, 49.1292
62, 0.00000, 3654.35, 14.6993, 3739.31, 15.4351, 3785.36, 15.6015
62, 900.00000, 3840.57, 14.3435, 3851.61, 15.1873, 3920.83, 15.229
62, 1800.00000, 3766.6, 14.1133, 3759.45, 14.7773, 3917.3, 14.7622
62, 2700.00000, 3615.89, 14.087, 3646.32, 14.9942, 3718.88, 15.0491
63, 0.00000, 2341.34, 29.555, 2523.14, 27.5405, 2588.89, 26.3328
63, 900.00000, 1505.26, 81.0428, 1467.93, 67.1163, 1544.11, 60.4472
63, 1800.00000, 2103.65, 25.9118, 2162.92, 24.4545, 2350.43, 23.4604
63, 2700.00000, 2629.72, 13.8878, 2667.33, 15.037, 2761.9, 14.7314
64, 0.00000, 2546.77, 13.4729, 2584.05, 14.5446, 2638.38, 14.2499
64, 900.00000, 2430.68, 12.7805, 2467.12, 14.1346, 2533.19, 13.7765
64, 1800.00000, 2108.61, 15.0285, 2191.07, 15.719, 2252.73, 15.4864
64, 2700.00000, 1007.03, 73.8936, 1104.51, 55.2585, 1137.81, 51.3748
65, 0.00000, 1041.42, 91.3107, 991.74, 70.1183, 1089.96, 61.0802
65, 900.00000, 2374.37, 12.9858, 2402.58, 13.5072, 2492.18, 14.1326
65, 1800.00000, 2414.23, 13.079, 2439.98, 13.5115, 2550.76, 14.0364
65, 2700.00000, 2584.46, 13.0371, 2637.73, 13.3825, 2749.81, 13.8113
66, 0.00000, 2690.8, 13.1143, 2750.96, 13.6831, 2902.08, 14.1981
66, 900.00000, 2517.19, 18.2376, 2627.95, 18.1707, 2764.88, 18.2552
66, 1800.00000, 2298.02, 24.9852, 2422.37, 23.6491, 2621.86, 24.1224
66, 2700.00000, 2726.79, 20.8979, 2852.54, 20.0987, 3133.43, 20.4604
67, 0.00000, 3245.96, 14.919, 3337.05, 15.6054, 3558.95, 16.5826
67, 900.00000, 3196.82, 15.43, 3351.61, 16.2705, 3539.56, 17.3341
67, 1800.00000, 3394.09, 15.0004, 3386.42, 16.118, 3650.65, 17.0336
67, 2700.00000, 2615.97, 23.2936, 2724.94, 23.5445, 2935.13, 23.2638
68, 0.00000, 1601.94, 87.6384, 1492.54, 74.4077, 1707.65, 64.0796
68, 900.00000, 1772.37, 47.595, 1902.15, 41.0073, 2300.4, 36.7525
68, 1800.00000, 3216.3, 15.0119, 3219.88, 16.073, 3465.14, 16.8382
68, 2700.00000, 3240.5, 14.8213, 3235.02, 15.7025, 3423.27, 16.7854
69, 0.00000, 3287.54, 14.8785, 3230.84, 15.756, 3438.01, 16.731
69, 900.00000, 3320.19, 15.0797, 3325.58, 16.0138, 3515.94, 16.6371
69, 1800.00000, 1630.64, 63.7605, 1739.66, 52.278, 1890.8, 47.8685
69, 2700.00000, 1776.77, 66.871, 1773.91, 56.2233, 2018.18, 48.6046
70, 0.00000, 3606.53, 15.2069, 3674.59, 15.6126, 3861.36, 16.0093
70, 900.00000, 3797.21, 14.2153, 3916.46, 14.8455, 4027.46, 14.9238
70, 1800.00000, 3777.92, 13.9688, 3881.04, 14.5791, 3997.73, 14.6213
70, 2700.00000, 3653.4, 13.8691, 3672.97, 14.7254, 3782.42, 14.8254
71, 0.00000, 2359.5, 28.7367, 2559.6, 26.9598, 2669.54, 25.845
71, 900.00000, 1793.09, 40.867, 2048.3, 34.6425, 2127.23, 33.0351
71, 1800.00000, 1875.53, 32.6467, 2033.63, 28.4132, 2208.22, 27.1993
71, 2700.00000, 2755.38, 13.5205, 2736.41, 14.1239, 2864.51, 14.1469
72, 0.00000, 2626.15, 13.2368, 2628.33, 13.991, 2768.5, 14.2341
72, 900.00000, 2543.19, 12.6837, 2555.65, 13.7188, 2640.52, 13.6255
72, 1800.00000, 2286.83, 15.4575, 2257.27, 15.7677, 2360.64, 15.4915
72, 2700.00000, 1378.14, 115.786, 1114.87, 98.1452, 1072.14, 91.2215
73, 0.00000, 1138.81, 101.621, 981.801, 83.1038, 1070.35, 69.6195
73, 900.00000, 2538.52, 11.9151, 2561.79, 12.5445, 2643.02, 13.208
73, 1800.00000, 2570.26, 12.336, 2598.62, 12.8118, 2701.67, 13.3561
73, 2700.00000, 2698.14, 12.3122, 2759.51, 12.7716, 2905.85, 13.4826
74, 0.00000, 2738.81, 12.7806, 2766.87, 13.3277, 2971.31, 13.7514
74, 900.00000, 1345.39, 54.6131, 1582.8, 42.8189, 1690.08, 39.8178
