hour, t(sec), S1 (kVA), Ang1, S2 (kVA), Ang2, S3 (kVA), Ang3
0, 900.00000, 2940.15, 3.72228, 2971.55, 6.14998, 2923.2, 4.18641
0, 1800.00000, 2919.43, 3.72062, 2841.62, 6.24792, 2877.77, 4.06988
0, 2700.00000, 849.2, 27.798, 1052.92, 28.886, 1069.98, 19.9057
1, 0.00000, 1416.44, 12.0258, 1483.91, 16.1023, 1580.09, 10.8392
1, 900.00000, 3031.12, 3.6395, 3064.6, 5.72662, 3023.71, 4.11923
1, 1800.00000, 3144.6, 4.0157, 3082.08, 6.06739, 3118.21, 4.35933
1, 2700.00000, 3318.85, 4.41669, 3388.37, 6.18093, 3220.59, 4.6195
2, 0.00000, 3377.21, 4.55227, 3385.21, 6.58331, 3297.5, 4.90321
2, 900.00000, 2771.92, 7.96798, 2949.1, 10.5189, 2814.46, 8.05518
2, 1800.00000, 3272.23, 6.96059, 3399.04, 10.7868, 3230.73, 7.04569
2, 2700.00000, 3768.23, 6.3775, 4002.53, 10.4343, 3689.26, 6.64495
3, 0.00000, 3637.69, 6.24009, 3752.29, 10.6039, 3604.09, 6.73942
3, 900.00000, 3617.15, 6.63345, 3771.43, 10.2056, 3593.75, 7.09325
3, 1800.00000, 3552.92, 6.58354, 3631.06, 10.482, 3518.36, 7.07731
3, 2700.00000, 3465.77, 6.76494, 3612.74, 10.131, 3430.73, 7.2493
4, 0.00000, 3170.69, 7.27443, 3269.79, 11.0364, 3212.04, 7.81352
4, 900.00000, 3309.72, 6.98119, 3540.36, 10.5532, 3346.39, 7.44026
4, 1800.00000, 3300.06, 6.78331, 3438.63, 10.5964, 3333.56, 7.10371
4, 2700.00000, 3237.63, 6.66849, 3475.95, 10.2441, 3295.64, 7.08825
5, 0.00000, 3220.34, 6.79451, 3262.95, 9.69324, 3289.27, 7.28198
5, 900.00000, 3325.68, 6.99973, 3482.52, 10.081, 3304.96, 7.20296
5, 1800.00000, 2760.01, 9.46507, 2790.16, 12.895, 2796.33, 9.52881
5, 2700.00000, 2804.99, 9.25637, 3122.31, 13.3067, 2932.5, 9.30154
6, 0.00000, 3594.61, 7.08829, 3607.78, 10.3145, 3572.43, 7.43841
6, 900.00000, 3730.03, 7.09324, 3896.96, 10.3553, 3721.9, 7.61321
6, 1800.00000, 3688.23, 6.71607, 3765.97, 10.456, 3668.65, 7.27576
6, 2700.00000, 3591.51, 6.51267, 3771.49, 10.1402, 3585.21, 6.95766
7, 0.00000, 3313.02, 7.16708, 3406.14, 10.779, 3323.13, 7.5951
7, 900.00000, 3107.04, 6.70029, 3260.97, 10.0773, 3123.59, 7.01488
7, 1800.00000, 3015.69, 5.27695, 3023.26, 8.51652, 2999.68, 5.6328
7, 2700.00000, 2834.73, 4.20301, 2886.17, 6.90341, 2769.15, 4.32338
8, 0.00000, 2726.72, 3.73102, 2723.63, 7.74386, 2653.75, 3.89118
8, 900.00000, 2603.85, 3.22227, 2605.78, 5.7017, 2545.71, 3.44611
8, 1800.00000, 2462.38, 2.74067, 2375.41, 5.56312, 2412.26, 3.0162
8, 2700.00000, 511.031, 124.041, 522.002, 97.2511, 355.231, 84.7281
9, 0.00000, 342.306, 52.457, 511.616, 49.8036, 513.359, 29.7234
9, 900.00000, 2413.18, 2.32624, 2457.17, 4.87429, 2399.28, 2.70545
9, 1800.00000, 2480.78, 2.27353, 2460.77, 5.43846, 2479.93, 2.91564
9, 2700.00000, 2649.02, 3.06027, 2774.11, 5.51352, 2601.22, 3.64558
10, 0.00000, 2774.21, 3.56051, 2767.35, 6.15972, 2715.22, 4.05802
10, 900.00000, 2470.66, 5.76408, 2672.83, 8.43828, 2462.2, 6.03469
10, 1800.00000, 2635.52, 6.61148, 2713.5, 9.91269, 2598.92, 6.65946
10, 2700.00000, 3090.9, 6.16642, 3242.37, 9.1233, 3048.75, 6.35373
11, 0.00000, 3007.91, 5.95641, 3163.96, 10.5104, 2983.58, 6.53665
11, 900.00000, 2993.59, 6.44571, 3183.88, 9.95372, 2981.24, 6.78313
11, 1800.00000, 3029.95, 6.58136, 3221.14, 11.5193, 2996.54, 7.19411
11, 2700.00000, 2945.69, 6.86784, 3187.47, 10.9024, 2927.87, 7.17568
12, 0.00000, 2844.91, 7.15079, 2941.28, 11.3302, 2802.41, 7.38466
12, 900.00000, 2730.81, 7.58616, 2891.17, 11.1824, 2708.42, 7.67599
12, 1800.00000, 2846.89, 6.48926, 2920.4, 10.6294, 2799.33, 6.83792
12, 2700.00000, 2797.68, 6.34183, 2925.77, 9.2166, 2760.6, 6.46162
13, 0.00000, 2777.73, 6.37219, 2798.9, 9.21552, 2774.88, 6.64368
13, 900.00000, 2821.62, 6.11939, 2975.11, 9.31662, 2798.86, 6.64658
13, 1800.00000, 2470.4, 8.58782, 2534.85, 13.0293, 2425.58, 8.70851
13, 2700.00000, 2088.62, 11.5814, 2359.09, 15.078, 2219.84, 11.2223
14, 0.00000, 3109.17, 6.70906, 3177.65, 10.1987, 3125.45, 7.42051
14, 900.00000, 3232.29, 6.67308, 3349.16, 9.94126, 3184.63, 7.18439
14, 1800.00000, 3173.98, 6.53792, 3306.63, 10.8165, 3150.94, 7.28051
14, 2700.00000, 3058.02, 6.08339, 3182.71, 9.19358, 3072.53, 6.86314
15, 0.00000, 2754.87, 7.38646, 2813.09, 11.9741, 2757.46, 7.80678
15, 900.00000, 2456.5, 7.32785, 2646.82, 12.0508, 2463.72, 7.67787
15, 1800.00000, 2033, 6.37237, 2176.98, 12.2187, 2088.29, 6.88637
15, 2700.00000, 2445.83, 3.60057, 2510.67, 7.22408, 2384.91, 3.80634
16, 0.00000, 2359.12, 3.04021, 2294.8, 6.54917, 2309.27, 3.30976
16, 900.00000, 2285.03, 2.29818, 2283.74, 5.17231, 2233.79, 2.55188
16, 1800.00000, 2192.89, 1.7528, 2110.14, 5.05053, 2154.75, 2.21968
16, 2700.00000, 1129.22, 7.23056, 1216.27, 12.3005, 1227.63, 6.63413
17, 0.00000, 437.608, 27.2121, 535.966, 35.6865, 618.201, 18.2858
17, 900.00000, 2233.99, 1.63773, 2256.28, 4.57613, 2228.24, 2.2004
17, 1800.00000, 2315.25, 1.9147, 2246.18, 4.68877, 2322.03, 2.62536
17, 2700.00000, 2460.19, 2.47306, 2548.42, 5.24779, 2423.34, 3.1287
18, 0.00000, 2577.04, 2.99076, 2591.45, 6.11365, 2537.32, 3.56859
18, 900.00000, 2448.79, 5.18485, 2496.26, 7.9417, 2395.92, 5.16391
18, 1800.00000, 537.248, 88.5091, 685.733, 76.5193, 534.615, 59.7674
18, 2700.00000, 2754.23, 6.07834, 2846.5, 9.22638, 2744.58, 6.17764
19, 0.00000, 2859.39, 5.65356, 2860.58, 9.44893, 2811.03, 5.91286
19, 900.00000, 2840.36, 5.80186, 3014.06, 9.75437, 2829.8, 6.32807
19, 1800.00000, 2849.23, 5.78162, 2900.35, 9.81695, 2787.56, 6.16511
19, 2700.00000, 2553.66, 7.89114, 2702.43, 11.1407, 2530.85, 7.82836
20, 0.00000, 590.1, 99.4473, 750.569, 80.6214, 589.923, 64.6274
20, 900.00000, 1018.94, 24.1805, 1339.46, 25.1251, 1144.35, 20.1538
20, 1800.00000, 2624.89, 5.80232, 2807.58, 10.1842, 2639.75, 6.32208
20, 2700.00000, 2590.69, 5.88062, 2698.45, 8.28146, 2610.02, 6.3702
21, 0.00000, 2539.2, 5.62649, 2591.63, 8.55341, 2599.97, 6.28158
21, 900.00000, 2584.29, 5.66704, 2702.76, 8.2012, 2582.47, 6.18663
21, 1800.00000, 1278.39, 19.122, 1432.67, 23.4726, 1456.68, 16.161
21, 2700.00000, 1636.57, 13.9755, 1901.76, 17.7178, 1774.01, 12.8447
22, 0.00000, 2900.79, 6.67655, 2993.89, 10.4896, 2879.82, 7.06868
22, 900.00000, 2959.53, 6.46648, 3101.32, 9.2689, 2921.76, 6.82928
22, 1800.00000, 3040.83, 6.36683, 3198.5, 10.934, 3013.11, 6.77307
22, 2700.00000, 2953.04, 6.04943, 3130.36, 10.2302, 2920.46, 6.23704
23, 0.00000, 2467.47, 7.66561, 2488.88, 11.8122, 2480.18, 7.59331
23, 900.00000, 960.945, 25.3225, 1191.49, 28.7422, 1099.56, 19.8985
23, 1800.00000, 1992.33, 5.79727, 2037.65, 10.6601, 2019.54, 5.97707
23, 2700.00000, 2342.23, 3.2651, 2501.49, 8.04861, 2308.62, 3.52039
24, 0.00000, 2309.46, 2.69191, 2244.6, 5.97746, 2283.27, 3.0353
24, 900.00000, 2265.21, 2.24514, 2312.42, 5.33769, 2235.44, 2.39808
24, 1800.00000, 2221.19, 1.96827, 2149.18, 5.28866, 2202.05, 2.39435
24, 2700.00000, 1455.46, 5.2495, 1525.89, 9.42077, 1525.85, 4.86408
25, 0.00000, 1320.89, 5.52939, 1317.18, 10.5204, 1452.37, 5.65158
25, 900.00000, 2301.27, 1.83121, 2344.92, 4.78892, 2320.34, 2.47288
25, 1800.00000, 2422.2, 2.68035, 2333.68, 5.10015, 2432.33, 3.12136
25, 2700.00000, 2587.95, 3.27317, 2676.44, 5.80632, 2578.03, 3.74256
26, 0.00000, 2737.96, 4.0393, 2710.23, 6.50679, 2733.35, 4.38365
26, 900.00000, 1827.98, 11.4552, 2040.08, 15.22, 1966.47, 10.4869
26, 1800.00000, 976.83, 30.4365, 1252.03, 34.4642, 1226.22, 22.9909
26, 2700.00000, 3046.39, 6.48037, 3239.43, 9.9024, 3099, 6.87698
27, 0.00000, 3152.59, 6.30287, 3157.19, 10.0835, 3130.46, 6.72543
27, 900.00000, 3095.81, 6.42099, 3186.28, 9.55038, 3147.72, 6.93323
27, 1800.00000, 3125.83, 6.51132, 3179.44, 10.7718, 3132.78, 6.83546
27, 2700.00000, 3096.79, 6.89066, 3202.19, 10.1324, 3072.35, 7.10709
28, 0.00000, 2656.44, 8.13166, 2644.28, 11.561, 2681.96, 8.20725
28, 900.00000, 2527.32, 7.94946, 2746.11, 11.9366, 2604.1, 8.14125
28, 1800.00000, 2939.73, 6.45524, 2962.19, 9.39902, 2957.45, 6.75193
28, 2700.00000, 2846.29, 6.24415, 3085.07, 10.2447, 2915.89, 6.6259
29, 0.00000, 2869.88, 6.35481, 2922.28, 10.4803, 2919, 6.73948
29, 900.00000, 2904.82, 6.683, 3049.32, 9.72922, 2948.98, 7.16341
29, 1800.00000, 876.984, 45.0698, 1131.03, 43.9393, 1097.76, 31.0114
29, 2700.00000, 809.305, 44.9131, 1289.51, 40.0392, 1042.42, 31.6737
30, 0.00000, 3184.9, 7.07257, 3278.3, 10.3911, 3218.8, 7.3963
30, 900.00000, 3174.74, 6.89238, 3350.59, 9.99243, 3197.73, 7.30679
30, 1800.00000, 3173.27, 6.74494, 3311.77, 10.9757, 3169.14, 7.23643
30, 2700.00000, 2999.61, 6.36013, 3185.28, 10.1428, 2991.7, 6.88703
31, 0.00000, 1729.02, 15.4626, 1987.79, 20.7214, 1893.32, 13.5813
31, 900.00000, 855.18, 133.237, 871.511, 101.128, 578.165, 109.21
31, 1800.00000, 1459.96, 10.0018, 1525.29, 15.1343, 1542.78, 9.26354
31, 2700.00000, 2307.87, 3.88603, 2435.61, 8.27374, 2289.25, 3.97654
32, 0.00000, 2269.4, 3.19094, 2313.2, 8.31844, 2221.78, 3.10364
32, 900.00000, 2164, 2.37685, 2305.15, 7.17813, 2151.29, 2.50904
32, 1800.00000, 2108.2, 2.03413, 2044.03, 5.55057, 2093.21, 2.16072
32, 2700.00000, 700.063, 16.0286, 838.816, 21.2811, 868.848, 11.8536
33, 0.00000, 1345.39, 4.62183, 1312.32, 9.7179, 1446.56, 4.83972
33, 900.00000, 2159.75, 2.17547, 2189.39, 4.90076, 2183.5, 2.61489
33, 1800.00000, 2223.24, 2.28797, 2185.3, 5.41357, 2252.65, 2.91595
33, 2700.00000, 2405.91, 3.29866, 2499.61, 5.96631, 2425.45, 4.12428
34, 0.00000, 2560.74, 4.26606, 2620.18, 8.00816, 2556.37, 4.69426
34, 900.00000, 1637.3, 12.8827, 1897.76, 16.8782, 1768.97, 11.8645
34, 1800.00000, 1319.04, 18.8018, 1451.17, 23.2381, 1485.97, 16.0446
34, 2700.00000, 2657.93, 7.49371, 2799.52, 10.4566, 2683.84, 7.95515
35, 0.00000, 2975.72, 6.257, 2971.53, 9.65602, 2988.18, 6.84743
35, 900.00000, 3003.83, 6.5404, 3193.86, 10.4433, 3014.7, 7.15347
35, 1800.00000, 3069.05, 6.72295, 3118.84, 10.1783, 3054.58, 7.07277
35, 2700.00000, 2644.53, 8.88956, 2798.62, 12.4802, 2647.9, 8.80175
36, 0.00000, 693.998, 99.1973, 868.492, 82.0645, 662.284, 70.8269
36, 900.00000, 1111.84, 25.4235, 1508.2, 26.1555, 1273.85, 21.5482
36, 1800.00000, 2929.9, 6.33432, 3040.06, 9.88857, 2936.58, 6.71446
36, 2700.00000, 2885.97, 6.04326, 3042.32, 9.05607, 2911.22, 6.39694
37, 0.00000, 2920.33, 6.21191, 2979.38, 9.5896, 2942.97, 6.73178
37, 900.00000, 2972.36, 6.4536, 3173.83, 10.5697, 2948.14, 6.83648
37, 1800.00000, 2217.51, 9.96373, 2321.25, 14.7224, 2304.08, 9.77444
37, 2700.00000, 2878.46, 8.03168, 3091.69, 12.2977, 2927.18, 8.18911
38, 0.00000, 3210.99, 6.98254, 3382.87, 11.4997, 3253.99, 7.25806
38, 900.00000, 3220.01, 6.92386, 3477.29, 10.7956, 3219.02, 7.26424
38, 1800.00000, 3129.69, 6.47251, 3338.75, 10.75, 3157.37, 6.9202
38, 2700.00000, 2995.5, 6.01443, 3243.98, 10.4158, 3018.89, 6.47528
39, 0.00000, 1936.3, 11.6754, 2197.28, 18.3494, 2043.73, 10.6496
39, 900.00000, 524.007, 73.0028, 839.66, 56.4437, 634.333, 45.2335
39, 1800.00000, 1329.74, 11.6628, 1461.7, 17.1144, 1470.22, 10.7057
39, 2700.00000, 2404.7, 3.99938, 2437.3, 6.77437, 2364.98, 3.88056
40, 0.00000, 2411.03, 3.90912, 2316.7, 6.70663, 2377.82, 3.87437
40, 900.00000, 2312.29, 2.63014, 2414.07, 6.75096, 2310.72, 2.95547
40, 1800.00000, 2262.14, 2.26336, 2184.87, 5.46811, 2260.34, 2.7163
40, 2700.00000, 461.928, 123.669, 481.834, 101.223, 334.776, 78.4126
41, 0.00000, 374.823, 43.9979, 487.125, 48.8164, 552.239, 26.0543
41, 900.00000, 2350.7, 2.10686, 2443.42, 6.15086, 2347.17, 2.60283
41, 1800.00000, 2451.55, 2.5153, 2440.07, 6.3003, 2446.78, 3.09487
41, 2700.00000, 2582.38, 2.9329, 2627.9, 5.34144, 2531.08, 3.32931
42, 0.00000, 2639.04, 3.50577, 2599.76, 6.34582, 2619.82, 3.94592
42, 900.00000, 979.247, 26.4491, 1396.2, 28.4309, 1216.57, 19.2552
42, 1800.00000, 573.68, 76.4292, 849.373, 64.6489, 660.32, 49.084
42, 2700.00000, 2666.32, 7.86621, 2883.82, 12.0534, 2678.56, 7.74328
43, 0.00000, 3149.19, 6.46539, 3172.04, 10.671, 3110.51, 6.59518
43, 900.00000, 3107.79, 6.73208, 3261.3, 10.3762, 3098.53, 6.8674
43, 1800.00000, 3163.41, 6.82909, 3204.34, 10.941, 3167.43, 7.14615
43, 2700.00000, 2540.94, 10.1637, 2677.8, 14.0792, 2570.18, 9.797
44, 0.00000, 775.78, 110.514, 918.147, 93.1702, 650.881, 79.7481
44, 900.00000, 1079.04, 27.557, 1422.45, 29.5914, 1249.55, 22.3253
44, 1800.00000, 2928.08, 6.53069, 2875.33, 9.56603, 2921.02, 6.94262
44, 2700.00000, 2942.48, 6.43136, 3092.04, 10.0981, 2950.6, 6.64474
45, 0.00000, 2925.03, 6.56716, 2878.87, 9.49208, 2974.14, 7.07072
45, 900.00000, 2980.79, 6.97784, 3073.32, 10.0682, 2954.38, 7.18896
45, 1800.00000, 2186.4, 11.4598, 2197.12, 16.2916, 2231.41, 10.5826
45, 2700.00000, 1196.46, 26.6732, 1481.89, 29.8658, 1368.85, 21.4599
46, 0.00000, 3231.76, 7.26963, 3240.5, 10.473, 3233.72, 7.2104
46, 900.00000, 3224.43, 6.74457, 3348.31, 9.43945, 3233.5, 6.85896
46, 1800.00000, 3194.2, 6.4843, 3329.88, 10.6029, 3208.83, 6.83354
46, 2700.00000, 3082.95, 6.42209, 3287.09, 10.1657, 3145.74, 6.83466
47, 0.00000, 2247.15, 10.2932, 2328.23, 14.4267, 2357.36, 9.68379
47, 900.00000, 808.896, 126.539, 820.142, 101.451, 598.938, 88.0502
47, 1800.00000, 1443.19, 12.1384, 1714.1, 19.432, 1591.87, 10.9811
47, 2700.00000, 2526.42, 4.12441, 2714.34, 9.08238, 2522.53, 4.50931
48, 0.00000, 2426.42, 3.14554, 2486.91, 8.00181, 2450.85, 3.7066
48, 900.00000, 2315.19, 2.29501, 2447.68, 6.69163, 2302.31, 2.60913
48, 1800.00000, 2204.47, 2.13393, 2196.95, 6.66576, 2214.99, 2.594
48, 2700.00000, 855.75, 149.367, 740.613, 127.19, 501.893, 133.124
49, 0.00000, 443.234, 137.121, 461.707, 118.096, 282.583, 93.3402
49, 900.00000, 2288.22, 1.9695, 2311.94, 4.50155, 2296.99, 2.46596
49, 1800.00000, 2358.36, 2.04342, 2311.78, 4.87815, 2370.29, 2.66093
49, 2700.00000, 2492.31, 2.56942, 2580.78, 5.13972, 2464.41, 3.14495
50, 0.00000, 2574.92, 3.11016, 2570.38, 5.94859, 2551.57, 3.56355
50, 900.00000, 1255.45, 17.1054, 1491.47, 19.8248, 1411.64, 13.9574
50, 1800.00000, 633.492, 115.892, 710.579, 97.3111, 522.552, 79.9326
50, 2700.00000, 2335.32, 8.02544, 2582.52, 12.3022, 2385.83, 8.00725
51, 0.00000, 2952.67, 6.01762, 2929.99, 8.99132, 2953.51, 6.38651
51, 900.00000, 2970.84, 6.33881, 3049.48, 9.54561, 2949.92, 6.74193
51, 1800.00000, 3021.09, 6.58717, 2983.2, 9.96332, 3002.57, 6.81832
51, 2700.00000, 2353.89, 10.2461, 2600.57, 14.6427, 2403.42, 9.55229
52, 0.00000, 628.182, 81.5888, 919.213, 68.6334, 686.343, 53.9014
52, 900.00000, 988.246, 27.9086, 1377.63, 30.6531, 1121.16, 22.4016
52, 1800.00000, 2744.68, 6.09653, 2860.33, 10.5932, 2783.78, 6.47235
52, 2700.00000, 2727.02, 6.0666, 2837.44, 8.84526, 2783.61, 6.35456
53, 0.00000, 2697.16, 5.97181, 2736.3, 9.59443, 2753.15, 6.42854
53, 900.00000, 2742.71, 6.24522, 2899.78, 9.56351, 2777.28, 6.62594
53, 1800.00000, 630.054, 73.7585, 865.953, 66.2433, 796.297, 43.8504
53, 2700.00000, 713.31, 117.383, 846.048, 84.6888, 606.891, 77.8834
54, 0.00000, 3051.27, 6.9881, 3224, 11.6732, 3100.36, 7.23483
54, 900.00000, 3093.5, 6.69809, 3373.47, 11.165, 3097.26, 6.71457
54, 1800.00000, 3067.09, 6.28247, 3244.46, 10.6408, 3123.47, 6.72817
54, 2700.00000, 3005.96, 6.22416, 3155.96, 9.88028, 3032.76, 6.49028
55, 0.00000, 2460.58, 8.07036, 2568.57, 12.9722, 2529.51, 7.97358
55, 900.00000, 872.496, 133.532, 848.16, 111.146, 585.846, 107.762
55, 1800.00000, 1063.84, 15.6518, 1293.37, 23.6801, 1201.42, 13.8455
55, 2700.00000, 2410.68, 3.18774, 2500.14, 7.28055, 2414.07, 3.71459
56, 0.00000, 2418.41, 2.90542, 2436.83, 7.38337, 2390.66, 3.16373
56, 900.00000, 2341.81, 2.2181, 2385.53, 5.18327, 2334.07, 2.69399
56, 1800.00000, 2228.1, 2.43293, 2140.75, 5.45065, 2175.32, 2.55964
56, 2700.00000, 339.168, 100.91, 449.898, 76.4147, 347.173, 54.6815
57, 0.00000, 492.233, 139.062, 496.021, 119.551, 301.289, 103.723
57, 900.00000, 2428.91, 2.01656, 2471.92, 4.54822, 2413.98, 2.42156
57, 1800.00000, 2533.8, 2.15885, 2487.68, 4.96582, 2526.72, 2.73609
57, 2700.00000, 2717.05, 3.0366, 2798.97, 5.27951, 2687.63, 3.75508
58, 0.00000, 2889.79, 3.90826, 2878.04, 6.38519, 2853.85, 4.30942
58, 900.00000, 1045.6, 29.2229, 1373.72, 29.8521, 1266.06, 21.7911
58, 1800.00000, 749.768, 116.861, 892.739, 90.8478, 609.405, 83.7699
58, 2700.00000, 2450.56, 8.35697, 2741.44, 12.8578, 2557.24, 8.62162
59, 0.00000, 3232.42, 5.70473, 3345.75, 9.94491, 3242.22, 6.19382
59, 900.00000, 3255.04, 6.0616, 3439.21, 9.63919, 3259.07, 6.54975
59, 1800.00000, 3328.23, 6.30356, 3385.73, 9.87355, 3281.08, 6.72636
59, 2700.00000, 2536.21, 10.1072, 2706.43, 13.1205, 2605.19, 9.65666
60, 0.00000, 750.958, 110.585, 892.689, 91.3999, 656.357, 75.4178
60, 900.00000, 939.683, 32.0366, 1351.56, 31.9426, 1140.51, 24.5065
60, 1800.00000, 3059.05, 6.04007, 3114.57, 8.9846, 3023.28, 6.12241
60, 2700.00000, 3010.88, 5.84804, 3179.99, 8.47413, 3022.37, 6.21586
61, 0.00000, 2978.45, 5.73099, 3044.58, 8.67743, 3009.94, 6.2345
61, 900.00000, 3067.52, 6.26794, 3209.39, 9.09125, 3046.34, 6.59476
61, 1800.00000, 725.102, 59.4825, 986.594, 55.221, 922.16, 38.7203
61, 2700.00000, 688.635, 103.041, 974.997, 73.1069, 686.617, 66.8636
62, 0.00000, 3270.94, 6.543, 3431.92, 11.0897, 3303.01, 6.99534
62, 900.00000, 3256.14, 6.4152, 3520.93, 10.6786, 3258.98, 6.87972
62, 1800.00000, 3192.83, 6.17066, 3254.87, 9.55381, 3193.11, 6.51198
62, 2700.00000, 3099.75, 6.03272, 3266.16, 9.83816, 3160.98, 6.46867
63, 0.00000, 1625.66, 16.5089, 1743.48, 21.0239, 1897.89, 13.9953
63, 900.00000, 860.942, 134.644, 831.58, 110.978, 577.495, 109.898
63, 1800.00000, 1419.64, 10.1394, 1516.03, 16.4533, 1498.54, 9.79899
63, 2700.00000, 2416.82, 3.56807, 2511.23, 7.65989, 2362.47, 3.55908
64, 0.00000, 2351.88, 2.87575, 2270.41, 6.10076, 2306.41, 2.84686
64, 900.00000, 2295.45, 2.43599, 2292.67, 5.12138, 2249.39, 2.38639
64, 1800.00000, 2045.96, 2.70147, 1965.12, 5.99097, 2035.06, 2.87113
64, 2700.00000, 306.533, 91.3704, 426.238, 71.9921, 368.764, 46.5181
65, 0.00000, 597.957, 146.886, 577.095, 131.613, 351.91, 119.893
65, 900.00000, 2256.51, 2.29962, 2273.25, 4.79725, 2284.41, 3.03499
65, 1800.00000, 2322.75, 2.46225, 2262.33, 5.30603, 2335.28, 3.08605
65, 2700.00000, 2456.85, 2.96712, 2543.74, 5.55788, 2430.48, 3.58131
66, 0.00000, 2578.17, 3.65809, 2564.14, 6.48827, 2554.99, 4.16788
66, 900.00000, 2086.96, 7.025, 2170.96, 9.72849, 2116.84, 6.99836
66, 1800.00000, 1666.31, 12.0659, 1851.61, 17.9802, 1789.76, 11.1967
66, 2700.00000, 2053.42, 9.75389, 2254.09, 13.9621, 2087.18, 9.74646
67, 0.00000, 2870.26, 6.54133, 2913.11, 10.6016, 2884.59, 6.94283
67, 900.00000, 2859.62, 6.67029, 2996.23, 10.1512, 2878.95, 7.26951
67, 1800.00000, 2890.8, 6.67571, 2961.16, 10.5934, 2892.42, 7.18168
67, 2700.00000, 2085.16, 12.1832, 2295.37, 16.2525, 2184.86, 11.8871
68, 0.00000, 1005.15, 134.883, 1021.46, 120.398, 694.672, 110.163
68, 900.00000, 611.833, 54.8531, 976.649, 45.5864, 830.529, 36.8086
68, 1800.00000, 2781.03, 6.48433, 2917.69, 10.8696, 2772.78, 6.74974
68, 2700.00000, 2738.85, 6.25907, 2891.86, 9.12614, 2783.03, 6.64625
69, 0.00000, 2728.16, 6.07615, 2815.6, 9.52897, 2770.67, 6.64051
69, 900.00000, 2792.73, 6.45255, 2915.87, 8.95098, 2774.8, 6.7749
69, 1800.00000, 651.907, 86.7096, 926.434, 69.2304, 720.562, 55.1017
69, 2700.00000, 817.562, 121.274, 842.328, 94.7205, 630.303, 92.0596
70, 0.00000, 2921.91, 7.13799, 2985.04, 10.8708, 2935.95, 7.39608
70, 900.00000, 3140.5, 6.56073, 3331.21, 9.97146, 3138.3, 6.81939
70, 1800.00000, 3143.79, 6.44786, 3214.53, 9.49188, 3171.31, 6.72633
70, 2700.00000, 3046.07, 6.20814, 3186.95, 9.19705, 3041.08, 6.44992
71, 0.00000, 1653.58, 16.5124, 1791.59, 21.1467, 1811.58, 14.2019
71, 900.00000, 897.082, 29.1571, 1190.86, 31.4743, 1037.33, 22.1958
71, 1800.00000, 899.258, 19.9614, 1181.42, 26.5062, 1051.81, 16.412
71, 2700.00000, 2392.28, 3.48718, 2562.65, 7.86916, 2391.21, 3.66645
72, 0.00000, 2316.11, 3.01226, 2382.12, 7.8795, 2293.85, 3.10888
72, 900.00000, 2258.95, 2.49831, 2303.38, 5.35864, 2219.45, 2.42536
72, 1800.00000, 2014.68, 3.42334, 1916.52, 6.51889, 1973.9, 3.21599
72, 2700.00000, 1212.25, 156.424, 1075.74, 145.846, 822.086, 151.978
73, 0.00000, 1024.23, 159.767, 922.399, 150.144, 642.228, 149.46
73, 900.00000, 2213.1, 1.64209, 2279.24, 4.37665, 2266.07, 2.30054
73, 1800.00000, 2278.35, 2.2066, 2334.2, 6.21417, 2335.59, 2.87924
73, 2700.00000, 2437.48, 2.93315, 2525.66, 5.4235, 2426.75, 3.4697
74, 0.00000, 2498.67, 3.46786, 2477.78, 6.2877, 2523.12, 4.13001
