hour, t(sec), V1, VAngle1, V2, VAngle2, V3, VAngle3, I1, IAngle1, I2, IAngle2, I3, IAngle3
0, 900.00000, 7415.54, -0.0000143937, 7415.54, -120, 7415.54, 120, 237.844, -11.3176, 230.226, -131.868, 224.586, 109.21
0, 1800.00000, 7415.54, -0.0000141463, 7415.54, -120, 7415.54, 120, 237.503, -11.9173, 222.434, -131.848, 214.39, 109.318
0, 2700.00000, 7415.54, -3.84092E-6, 7415.54, -120, 7415.54, 120, 103.132, -24.9672, 102.464, -148.402, 99.4805, 95.9571
1, 0.00000, 7415.54, -7.62424E-6, 7415.54, -120, 7415.54, 120, 141.136, -15.2882, 132.793, -139.965, 134.083, 104.187
1, 900.00000, 7415.54, -0.0000154554, 7415.54, -120, 7415.54, 120, 244.711, -9.63866, 242.843, -130.572, 234.178, 110.436
1, 1800.00000, 7415.54, -0.0000162938, 7415.54, -120, 7415.54, 120, 260.865, -10.0888, 259.781, -130.949, 248.685, 110.431
1, 2700.00000, 7415.54, -0.0000176625, 7415.54, -120, 7415.54, 120, 283.27, -10.1619, 278.46, -130.998, 273.277, 110.175
2, 0.00000, 7415.54, -0.000017907, 7415.54, -120, 7415.54, 120, 291.6, -10.7631, 280.621, -130.867, 274.02, 110.17
2, 900.00000, 7415.54, -0.0000152567, 7415.54, -120, 7415.54, 120, 271.152, -13.9631, 268.919, -134.604, 260.242, 106.724
2, 1800.00000, 7415.54, -0.0000179147, 7415.54, -120, 7415.54, 120, 311.455, -13.1987, 311.504, -133.867, 299.783, 107.111
2, 2700.00000, 7415.54, -0.0000205265, 7415.54, -120, 7415.54, 120, 350.867, -12.5948, 343.935, -133.536, 337.499, 107.528
3, 0.00000, 7415.54, -0.0000189589, 7415.54, -120, 7415.54, 120, 324.838, -12.6778, 323.215, -133.679, 321.242, 107.138
3, 900.00000, 7415.54, -0.0000185482, 7415.54, -120, 7415.54, 120, 328.385, -13.838, 322.548, -135.256, 309.161, 106.039
3, 1800.00000, 7415.54, -0.0000187786, 7415.54, -120, 7415.54, 120, 333.932, -13.9905, 321.241, -135.263, 317.335, 106.32
3, 2700.00000, 7415.54, -0.0000171696, 7415.54, -120, 7415.54, 120, 316.31, -15.1766, 299.707, -135.847, 294.497, 105.731
4, 0.00000, 7415.54, -0.0000150489, 7415.54, -120, 7415.54, 120, 281.102, -15.6218, 276.142, -137.111, 264.424, 104.728
4, 900.00000, 7415.54, -0.000015668, 7415.54, -120, 7415.54, 120, 288.887, -15.2004, 284.103, -136.516, 269.649, 105.035
4, 1800.00000, 7415.54, -0.0000145931, 7415.54, -120, 7415.54, 120, 270.567, -15.379, 268.112, -136.595, 258.472, 104.893
4, 2700.00000, 7415.54, -0.0000141699, 7415.54, -120, 7415.54, 120, 264.531, -15.6006, 259.916, -137.015, 249.926, 104.515
5, 0.00000, 7415.54, -0.0000134437, 7415.54, -120, 7415.54, 120, 252.965, -15.8519, 248.445, -137.183, 241.47, 104.381
5, 900.00000, 7415.54, -0.0000139302, 7415.54, -120, 7415.54, 120, 262.667, -15.9202, 257.998, -137.035, 251.102, 104.504
5, 1800.00000, 7415.54, -0.000011439, 7415.54, -120, 7415.54, 120, 235.958, -18.6139, 236.056, -140.708, 230.693, 101.682
5, 2700.00000, 7415.54, -0.0000137105, 7415.54, -120, 7415.54, 120, 269.123, -17.1668, 260.157, -138.799, 266.518, 103.101
6, 0.00000, 7415.54, -0.00001724, 7415.54, -120, 7415.54, 120, 314.677, -14.8705, 308.769, -136.193, 312.407, 105.141
6, 900.00000, 7415.54, -0.0000190684, 7415.54, -120, 7415.54, 120, 339.537, -14.037, 331.43, -135.393, 338.971, 105.81
6, 1800.00000, 7415.54, -0.0000201492, 7415.54, -120, 7415.54, 120, 352.535, -13.4278, 340.939, -134.823, 343.458, 106.552
6, 2700.00000, 7415.54, -0.0000191614, 7415.54, -120, 7415.54, 120, 335.12, -13.4121, 322.811, -135.249, 318.203, 106.746
7, 0.00000, 7415.54, -0.0000176032, 7415.54, -120, 7415.54, 120, 315.478, -14.255, 308.967, -137.071, 311.649, 105.594
7, 900.00000, 7415.54, -0.0000170618, 7415.54, -120, 7415.54, 120, 303.691, -14.0196, 286.709, -136.281, 287.889, 106.06
7, 1800.00000, 7415.54, -0.0000166211, 7415.54, -120, 7415.54, 120, 282.964, -12.4393, 274.66, -134.369, 274.766, 107.327
7, 2700.00000, 7415.54, -0.000015231, 7415.54, -120, 7415.54, 120, 255.92, -11.951, 247.86, -133.422, 240.282, 108.116
8, 0.00000, 7415.54, -0.0000146777, 7415.54, -120, 7415.54, 120, 243.836, -11.522, 238.812, -132.993, 235.91, 108.421
8, 900.00000, 7415.54, -0.0000138476, 7415.54, -120, 7415.54, 120, 227.649, -11.119, 222.342, -132.541, 219.779, 109.037
8, 1800.00000, 7415.54, -0.0000126859, 7415.54, -120, 7415.54, 120, 209.712, -11.3269, 209.598, -132.637, 199.63, 109.111
8, 2700.00000, 7415.54, -5.93894E-8, 7415.54, -120, 7415.54, 120, 62.2957, -44.3371, 69.1081, -166.275, 64.1702, 80.5462
9, 0.00000, 7415.54, -3.21355E-6, 7415.54, -120, 7415.54, 120, 80.2036, -23.3524, 73.1769, -155.375, 77.1532, 96.0876
9, 900.00000, 7415.54, -0.0000136399, 7415.54, -120, 7415.54, 120, 219.479, -10.2804, 218.128, -131.068, 210.721, 110.076
9, 1800.00000, 7415.54, -0.0000140612, 7415.54, -120, 7415.54, 120, 225.231, -10.1009, 224.855, -130.991, 219.686, 110.403
9, 2700.00000, 7415.54, -0.0000150046, 7415.54, -120, 7415.54, 120, 241.193, -10.2451, 240.331, -131.269, 240.478, 110.106
10, 0.00000, 7415.54, -0.0000149957, 7415.54, -120, 7415.54, 120, 243.786, -10.6901, 243.18, -131.483, 245.618, 109.627
10, 900.00000, 7415.54, -0.000013534, 7415.54, -120, 7415.54, 120, 235.032, -13.1465, 240.036, -134.244, 238.398, 107.491
10, 1800.00000, 7415.54, -0.0000147227, 7415.54, -120, 7415.54, 120, 259.162, -13.6285, 262.366, -135.069, 265.698, 106.795
10, 2700.00000, 7415.54, -0.0000176559, 7415.54, -120, 7415.54, 120, 309.475, -13.4871, 305.846, -134.753, 308.204, 107.051
11, 0.00000, 7415.54, -0.0000169717, 7415.54, -120, 7415.54, 120, 297.234, -13.4562, 297.604, -135.03, 293.485, 106.503
11, 900.00000, 7415.54, -0.000016407, 7415.54, -120, 7415.54, 120, 294.671, -14.3253, 290.117, -135.727, 294.256, 105.725
11, 1800.00000, 7415.54, -0.0000175532, 7415.54, -120, 7415.54, 120, 317.48, -14.5655, 302.497, -135.96, 309.824, 106.045
11, 2700.00000, 7415.54, -0.0000166209, 7415.54, -120, 7415.54, 120, 304.005, -14.9379, 294.696, -136.387, 301.687, 105.362
12, 0.00000, 7415.54, -0.0000153949, 7415.54, -120, 7415.54, 120, 285.37, -15.3743, 282.992, -136.868, 280.721, 104.979
12, 900.00000, 7415.54, -0.0000158904, 7415.54, -120, 7415.54, 120, 292.675, -15.166, 288.85, -136.276, 284.222, 105.051
12, 1800.00000, 7415.54, -0.0000151385, 7415.54, -120, 7415.54, 120, 275.891, -14.8138, 262.725, -136.164, 263.565, 105.401
12, 2700.00000, 7415.54, -0.0000147415, 7415.54, -120, 7415.54, 120, 267.476, -14.6655, 260.325, -136.131, 258.581, 105.471
13, 0.00000, 7415.54, -0.0000144033, 7415.54, -120, 7415.54, 120, 262.015, -14.7509, 252.807, -136.171, 255.39, 104.984
13, 900.00000, 7415.54, -0.0000148872, 7415.54, -120, 7415.54, 120, 269.795, -14.6256, 258.976, -136.246, 260.596, 105.689
13, 1800.00000, 7415.54, -0.0000130238, 7415.54, -120, 7415.54, 120, 250.31, -16.518, 242.16, -138.87, 250.1, 103.574
13, 2700.00000, 7415.54, -0.0000126754, 7415.54, -120, 7415.54, 120, 252.21, -17.5711, 240.392, -140.717, 251.075, 102.249
14, 0.00000, 7415.54, -0.0000171829, 7415.54, -120, 7415.54, 120, 313.682, -14.8755, 310.578, -136.913, 311.224, 104.906
14, 900.00000, 7415.54, -0.0000187065, 7415.54, -120, 7415.54, 120, 335.071, -14.239, 329.76, -135.921, 330.482, 105.77
14, 1800.00000, 7415.54, -0.000019541, 7415.54, -120, 7415.54, 120, 345.238, -13.7672, 327.746, -135.394, 329.613, 105.963
14, 2700.00000, 7415.54, -0.0000186792, 7415.54, -120, 7415.54, 120, 330.162, -13.7813, 322.172, -135.432, 317.274, 106.32
15, 0.00000, 7415.54, -0.0000172888, 7415.54, -120, 7415.54, 120, 316.93, -15.0135, 310.606, -137.235, 309.831, 105.1
15, 900.00000, 7415.54, -0.0000134606, 7415.54, -120, 7415.54, 120, 256.161, -16.2105, 242.49, -139.523, 249.827, 104.352
15, 1800.00000, 7415.54, -0.0000144304, 7415.54, -120, 7415.54, 120, 259.302, -14.3368, 242.406, -135.957, 242.477, 106.148
15, 2700.00000, 7415.54, -0.0000140972, 7415.54, -120, 7415.54, 120, 242.288, -12.7771, 238.204, -134.02, 230.359, 107.459
16, 0.00000, 7415.54, -0.0000134747, 7415.54, -120, 7415.54, 120, 228.168, -12.2318, 224.064, -133.398, 217.38, 107.919
16, 900.00000, 7415.54, -0.000013192, 7415.54, -120, 7415.54, 120, 218.792, -11.4534, 210.469, -132.397, 208.081, 108.916
16, 1800.00000, 7415.54, -0.0000119794, 7415.54, -120, 7415.54, 120, 198.93, -11.4954, 198.445, -132.513, 192.518, 108.8
16, 2700.00000, 7415.54, -7.66534E-6, 7415.54, -120, 7415.54, 120, 144.614, -15.901, 147.188, -138.05, 142.201, 104.729
17, 0.00000, 7415.54, -4.41974E-6, 7415.54, -120, 7415.54, 120, 96.3044, -20.0488, 94.8074, -146.619, 96.4579, 100.062
17, 900.00000, 7415.54, -0.0000128035, 7415.54, -120, 7415.54, 120, 206.325, -10.3354, 209.727, -131.434, 202.361, 109.889
17, 1800.00000, 7415.54, -0.0000134092, 7415.54, -120, 7415.54, 120, 214.952, -10.1286, 216.358, -131.182, 213.765, 110.165
17, 2700.00000, 7415.54, -0.0000143552, 7415.54, -120, 7415.54, 120, 232.209, -10.4914, 232.91, -131.451, 233.618, 109.896
18, 0.00000, 7415.54, -0.0000148541, 7415.54, -120, 7415.54, 120, 242.157, -10.7983, 246.397, -132.139, 240.197, 109.615
18, 900.00000, 7415.54, -0.0000141232, 7415.54, -120, 7415.54, 120, 242.946, -12.8085, 244.053, -134, 239.428, 107.629
18, 1800.00000, 7415.54, -1.80605E-6, 7415.54, -120, 7415.54, 120, 98.759, -35.2612, 107.402, -160.386, 109.578, 88.8583
18, 2700.00000, 7415.54, -0.0000158623, 7415.54, -120, 7415.54, 120, 278.941, -13.5964, 277.724, -135.354, 278.993, 106.588
19, 0.00000, 7415.54, -0.000016434, 7415.54, -120, 7415.54, 120, 291.503, -13.8984, 295.668, -134.52, 290.94, 106.874
19, 900.00000, 7415.54, -0.0000167781, 7415.54, -120, 7415.54, 120, 305.441, -14.7819, 294.372, -135.328, 283.188, 106.172
19, 1800.00000, 7415.54, -0.0000179815, 7415.54, -120, 7415.54, 120, 324.067, -14.4459, 309.916, -134.946, 302.972, 106.499
19, 2700.00000, 7415.54, -0.0000157825, 7415.54, -120, 7415.54, 120, 302.889, -16.4808, 300.473, -136.86, 283.316, 104.85
20, 0.00000, 7415.54, -1.7603E-6, 7415.54, -120, 7415.54, 120, 122.103, -37.3346, 124.363, -161.276, 119.63, 84.6472
20, 900.00000, 7415.54, -7.61904E-6, 7415.54, -120, 7415.54, 120, 180.021, -22.1502, 165.695, -147.137, 163.498, 97.6101
20, 1800.00000, 7415.54, -0.0000143824, 7415.54, -120, 7415.54, 120, 263.676, -15.0091, 265.092, -135.893, 253.301, 105.225
20, 2700.00000, 7415.54, -0.000013905, 7415.54, -120, 7415.54, 120, 254.692, -14.9775, 247.374, -136.152, 243.333, 104.918
21, 0.00000, 7415.54, -0.000014263, 7415.54, -120, 7415.54, 120, 262.548, -15.1422, 253.16, -136.358, 245.044, 105.029
21, 900.00000, 7415.54, -0.000014364, 7415.54, -120, 7415.54, 120, 262.289, -14.8765, 252.588, -136.172, 247.952, 105.184
21, 1800.00000, 7415.54, -7.4229E-6, 7415.54, -120, 7415.54, 120, 185.21, -23.4234, 175.706, -145.57, 177.659, 97.5502
21, 2700.00000, 7415.54, -0.0000105609, 7415.54, -120, 7415.54, 120, 226.703, -19.7155, 222.018, -142.162, 218.318, 100.849
22, 0.00000, 7415.54, -0.0000161838, 7415.54, -120, 7415.54, 120, 299.132, -15.2823, 295.702, -137.075, 297.787, 104.777
22, 900.00000, 7415.54, -0.0000171978, 7415.54, -120, 7415.54, 120, 309.423, -14.3874, 309.456, -137.292, 308.42, 105.573
22, 1800.00000, 7415.54, -0.0000187575, 7415.54, -120, 7415.54, 120, 333.061, -13.9392, 319.243, -136.062, 317.214, 105.957
22, 2700.00000, 7415.54, -0.000018281, 7415.54, -120, 7415.54, 120, 324.195, -13.8952, 319.067, -135.753, 310.434, 106.345
23, 0.00000, 7415.54, -0.0000157077, 7415.54, -120, 7415.54, 120, 289.854, -15.2272, 278.398, -136.969, 280.75, 105.234
23, 900.00000, 7415.54, -8.00251E-6, 7415.54, -120, 7415.54, 120, 187.027, -21.8877, 173.867, -146.132, 184.317, 98.4961
23, 1800.00000, 7415.54, -0.0000119952, 7415.54, -120, 7415.54, 120, 215.881, -14.3809, 208.092, -137.089, 210.663, 105.481
23, 2700.00000, 7415.54, -0.0000131783, 7415.54, -120, 7415.54, 120, 226.261, -12.7363, 227.3, -134.277, 221.395, 106.89
24, 0.00000, 7415.54, -0.0000128811, 7415.54, -120, 7415.54, 120, 217.642, -12.1487, 218.378, -133.43, 211.567, 107.756
24, 900.00000, 7415.54, -0.0000126155, 7415.54, -120, 7415.54, 120, 210.214, -11.6285, 208.621, -132.981, 204.462, 108.358
24, 1800.00000, 7415.54, -0.0000116037, 7415.54, -120, 7415.54, 120, 193.533, -11.6583, 194.491, -132.831, 189.787, 108.368
24, 2700.00000, 7415.54, -8.23903E-6, 7415.54, -120, 7415.54, 120, 151.89, -15.1592, 150.997, -137.563, 150.847, 105.106
25, 0.00000, 7415.54, -8.40867E-6, 7415.54, -120, 7415.54, 120, 151.16, -14.3186, 147.699, -136.094, 144.778, 106.066
25, 900.00000, 7415.54, -0.0000122502, 7415.54, -120, 7415.54, 120, 200.145, -10.8725, 198.135, -131.558, 191.919, 109.664
25, 1800.00000, 7415.54, -0.0000127402, 7415.54, -120, 7415.54, 120, 208.725, -10.9817, 210.732, -132.029, 208.903, 109.242
25, 2700.00000, 7415.54, -0.0000138578, 7415.54, -120, 7415.54, 120, 228.789, -11.2823, 225.639, -132.298, 226.576, 109.008
26, 0.00000, 7415.54, -0.000013841, 7415.54, -120, 7415.54, 120, 233.561, -12.1052, 229.584, -132.507, 234.154, 108.721
26, 900.00000, 7415.54, -0.000010407, 7415.54, -120, 7415.54, 120, 200.722, -16.6159, 211.78, -137.472, 202.389, 103.897
26, 1800.00000, 7415.54, -5.49088E-6, 7415.54, -120, 7415.54, 120, 149.313, -25.2609, 148.677, -147.697, 153.088, 96.7172
26, 2700.00000, 7415.54, -0.0000155773, 7415.54, -120, 7415.54, 120, 279.164, -14.2494, 278.91, -135.493, 278.379, 106.322
27, 0.00000, 7415.54, -0.0000149963, 7415.54, -120, 7415.54, 120, 270.975, -14.527, 269.746, -135.776, 266.954, 105.958
27, 900.00000, 7415.54, -0.0000149128, 7415.54, -120, 7415.54, 120, 274.46, -15.1384, 269.847, -136.451, 263.683, 105.172
27, 1800.00000, 7415.54, -0.0000163224, 7415.54, -120, 7415.54, 120, 293.339, -14.3469, 287.467, -135.791, 285.379, 106.033
27, 2700.00000, 7415.54, -0.000015272, 7415.54, -120, 7415.54, 120, 279.54, -14.959, 280.707, -136.516, 272.294, 105.471
28, 0.00000, 7415.54, -0.0000123672, 7415.54, -120, 7415.54, 120, 245.059, -17.4463, 239.389, -138.847, 241.286, 103.526
28, 900.00000, 7415.54, -0.0000104882, 7415.54, -120, 7415.54, 120, 216.168, -18.586, 205.426, -142.031, 212.378, 101.956
28, 1800.00000, 7415.54, -0.0000141495, 7415.54, -120, 7415.54, 120, 261.596, -15.2847, 257.975, -136.569, 251.579, 105.161
28, 2700.00000, 7415.54, -0.0000132637, 7415.54, -120, 7415.54, 120, 248.353, -15.6936, 243.378, -136.939, 238.614, 104.732
29, 0.00000, 7415.54, -0.000013115, 7415.54, -120, 7415.54, 120, 245.547, -15.6901, 242.674, -137.259, 233.161, 104.436
29, 900.00000, 7415.54, -0.0000132994, 7415.54, -120, 7415.54, 120, 249.374, -15.7392, 246.388, -137.289, 237.226, 104.509
29, 1800.00000, 7415.54, -2.73049E-6, 7415.54, -120, 7415.54, 120, 137.154, -34.427, 142.846, -156.997, 143.663, 88.6338
29, 2700.00000, 7415.54, -3.69044E-6, 7415.54, -120, 7415.54, 120, 142.544, -31.2208, 132.996, -161.471, 144.367, 89.7404
30, 0.00000, 7415.54, -0.0000166206, 7415.54, -120, 7415.54, 120, 310.991, -15.6805, 299.812, -137.852, 301.583, 104.528
30, 900.00000, 7415.54, -0.0000171576, 7415.54, -120, 7415.54, 120, 316.15, -15.183, 311.709, -137.539, 315.648, 104.977
30, 1800.00000, 7415.54, -0.0000176864, 7415.54, -120, 7415.54, 120, 322.383, -14.8258, 321.971, -136.602, 319.726, 105.306
30, 2700.00000, 7415.54, -0.0000167948, 7415.54, -120, 7415.54, 120, 305.354, -14.7391, 303.971, -136.65, 305.859, 105.218
31, 0.00000, 7415.54, -0.0000102847, 7415.54, -120, 7415.54, 120, 233.134, -21.1408, 227.7, -142.235, 229.782, 100.039
31, 900.00000, 7415.54, 8.04613E-7, 7415.54, -120, 7415.54, 120, 91.9048, -49.4848, 89.8523, 176.374, 90.5088, 72.1064
31, 1800.00000, 7415.54, -9.42022E-6, 7415.54, -120, 7415.54, 120, 185.422, -17.2313, 178.555, -141.528, 176.917, 102.247
31, 2700.00000, 7415.54, -0.0000115106, 7415.54, -120, 7415.54, 120, 212.602, -15.243, 211.552, -135.736, 204.023, 105.651
32, 0.00000, 7415.54, -0.0000117596, 7415.54, -120, 7415.54, 120, 207.89, -13.7657, 206.527, -136.581, 202.564, 106.028
32, 900.00000, 7415.54, -0.0000107296, 7415.54, -120, 7415.54, 120, 185.091, -12.8945, 181.711, -134.709, 184.812, 107.043
32, 1800.00000, 7415.54, -0.0000103412, 7415.54, -120, 7415.54, 120, 178.468, -12.9075, 174.266, -133.908, 171.772, 107.532
32, 2700.00000, 7415.54, -4.45578E-6, 7415.54, -120, 7415.54, 120, 107.659, -22.6404, 106.905, -146.357, 106.815, 98.1292
33, 0.00000, 7415.54, -7.77783E-6, 7415.54, -120, 7415.54, 120, 142.08, -14.8518, 136.054, -137.09, 135.988, 105.296
33, 900.00000, 7415.54, -0.000010561, 7415.54, -120, 7415.54, 120, 177.794, -12.002, 173.737, -133.023, 171.644, 108.459
33, 1800.00000, 7415.54, -0.0000107624, 7415.54, -120, 7415.54, 120, 182.015, -12.1725, 182.479, -133.464, 179.663, 108.311
33, 2700.00000, 7415.54, -0.0000119421, 7415.54, -120, 7415.54, 120, 202.827, -12.3357, 200.292, -133.669, 203.054, 107.783
34, 0.00000, 7415.54, -0.0000123972, 7415.54, -120, 7415.54, 120, 214.157, -12.9536, 209.571, -134.151, 210.093, 107.358
34, 900.00000, 7415.54, -7.23982E-6, 7415.54, -120, 7415.54, 120, 163.695, -21.056, 179.036, -142.152, 169.395, 100.289
34, 1800.00000, 7415.54, -6.29E-6, 7415.54, -120, 7415.54, 120, 158.028, -23.5683, 166.56, -146.034, 166.091, 97.4848
34, 2700.00000, 7415.54, -0.0000131131, 7415.54, -120, 7415.54, 120, 247.452, -15.9421, 236.367, -137.726, 241.291, 104.373
35, 0.00000, 7415.54, -0.0000141367, 7415.54, -120, 7415.54, 120, 259.673, -15.0721, 260.37, -136.104, 256.225, 105.218
35, 900.00000, 7415.54, -0.0000141578, 7415.54, -120, 7415.54, 120, 266.419, -15.8564, 255.449, -136.655, 262.302, 104.538
35, 1800.00000, 7415.54, -0.0000155898, 7415.54, -120, 7415.54, 120, 287.349, -15.1894, 279.513, -136.049, 280.189, 105.259
35, 2700.00000, 7415.54, -0.0000128807, 7415.54, -120, 7415.54, 120, 256.269, -17.5689, 258.387, -138.587, 256.171, 103.078
36, 0.00000, 7415.54, 2.71476E-7, 7415.54, -120, 7415.54, 120, 102.594, -46.2886, 106.599, -170.652, 106.772, 78.2058
36, 900.00000, 7415.54, -6.8321E-6, 7415.54, -120, 7415.54, 120, 172.368, -23.6678, 150.828, -151.619, 159.552, 95.0181
36, 1800.00000, 7415.54, -0.0000143771, 7415.54, -120, 7415.54, 120, 265.937, -15.3018, 254.674, -136.833, 250.416, 105.148
36, 2700.00000, 7415.54, -0.0000138924, 7415.54, -120, 7415.54, 120, 254.678, -15.0056, 250.324, -136.653, 246.055, 105.23
37, 0.00000, 7415.54, -0.0000139816, 7415.54, -120, 7415.54, 120, 255.979, -14.9626, 253.167, -136.734, 246.201, 105.301
37, 900.00000, 7415.54, -0.0000143828, 7415.54, -120, 7415.54, 120, 261.227, -14.6976, 258.95, -137.278, 258.971, 105.109
37, 1800.00000, 7415.54, -0.0000113338, 7415.54, -120, 7415.54, 120, 228.646, -17.9723, 225.556, -140.683, 227.283, 102.118
37, 2700.00000, 7415.54, -0.0000144237, 7415.54, -120, 7415.54, 120, 276.303, -16.4198, 275.453, -138.172, 280.146, 103.944
38, 0.00000, 7415.54, -0.0000160361, 7415.54, -120, 7415.54, 120, 298.978, -15.5633, 304.038, -136.981, 303.344, 104.916
38, 900.00000, 7415.54, -0.0000173484, 7415.54, -120, 7415.54, 120, 320.19, -15.2371, 312.661, -136.794, 320.668, 105.094
38, 1800.00000, 7415.54, -0.000017632, 7415.54, -120, 7415.54, 120, 322.532, -14.9435, 304.113, -136.791, 312.438, 105.425
38, 2700.00000, 7415.54, -0.0000173775, 7415.54, -120, 7415.54, 120, 315.55, -14.6983, 308.681, -136.522, 308.049, 105.389
39, 0.00000, 7415.54, -0.0000124772, 7415.54, -120, 7415.54, 120, 260.746, -18.9847, 251.031, -140.12, 258.197, 101.915
39, 900.00000, 7415.54, -3.92408E-6, 7415.54, -120, 7415.54, 120, 142.411, -30.3201, 131.659, -157.792, 142.234, 90.8625
39, 1800.00000, 7415.54, -9.16274E-6, 7415.54, -120, 7415.54, 120, 183.697, -17.7771, 165.29, -142.894, 174.133, 101.86
39, 2700.00000, 7415.54, -0.0000128778, 7415.54, -120, 7415.54, 120, 227.3, -13.7161, 224.509, -134.708, 218.914, 106.485
40, 0.00000, 7415.54, -0.0000127184, 7415.54, -120, 7415.54, 120, 219.855, -12.9791, 218.274, -134.12, 213.158, 107.188
40, 900.00000, 7415.54, -0.000012353, 7415.54, -120, 7415.54, 120, 206.694, -11.783, 202.603, -133.069, 201.042, 108.127
40, 1800.00000, 7415.54, -0.0000113682, 7415.54, -120, 7415.54, 120, 189.202, -11.5769, 189.49, -132.72, 184.425, 108.535
40, 2700.00000, 7415.54, -1.16305E-6, 7415.54, -120, 7415.54, 120, 74.3586, -36.6322, 78.654, -160.399, 74.1244, 85.0106
